(1782308579.163860) can1 60A#03FBF710
(1782308579.164027) can1 60B#384F04028020019C
(1782308579.164396) can1 60B#204FEC00802001B4
(1782308579.164603) can1 60B#0050E3FD802001B7
(1782308579.164917) can1 60C#3884A33A0220E8
(1782308579.165028) can1 60C#2084633A0220E8
(1782308579.165395) can1 60C#0084A33A0220E8
(1782308579.165629) can1 60D#387D0FA070801205
(1782308579.165878) can1 60D#207D4FA17080190C
(1782308579.166027) can1 60D#007D0FA67080190B
(1782308579.234136) can1 60A#03FBF910
(1782308579.234316) can1 60B#384F04028020019C
(1782308579.234587) can1 60B#204FEC00802001B4
(1782308579.234815) can1 60B#0050E3FD802001B7
(1782308579.235042) can1 60C#3884A33A0220E8
(1782308579.235350) can1 60C#2084633A0220E8
(1782308579.235602) can1 60C#0084A33A0220E8
(1782308579.235847) can1 60D#387D0FA070801205
(1782308579.236028) can1 60D#207D4FA17080190C
(1782308579.236333) can1 60D#007D0FA67080190B
(1782308579.308930) can1 60A#03FBFB10
(1782308579.309041) can1 60B#384F04028020019C
(1782308579.309453) can1 60B#204FEC00802001B4
(1782308579.309640) can1 60B#0050E3FD802001B7
(1782308579.309912) can1 60C#3884A33A0220E8
(1782308579.310029) can1 60C#2084633A0220E8
(1782308579.310386) can1 60C#0084A33A0220E8
(1782308579.310673) can1 60D#387D0FA070801205
(1782308579.310876) can1 60D#207D4FA17080190C
(1782308579.311156) can1 60D#007D0FA67080190B
(1782308579.383953) can1 60A#03FBFD10
(1782308579.384043) can1 60B#384F04028020019C
(1782308579.384483) can1 60B#204FEC00802001B4
(1782308579.384675) can1 60B#0050E3FD802001B7
(1782308579.384920) can1 60C#3884A33A0220E8
(1782308579.385133) can1 60C#2084633A0220E8
(1782308579.385483) can1 60C#0084A33A0220E8
(1782308579.385687) can1 60D#387D0FA070801205
(1782308579.385959) can1 60D#207D2FA17080190C
(1782308579.386189) can1 60D#007D0FA67080190B
(1782308579.458978) can1 60A#03FBFF10
(1782308579.459199) can1 60B#384F04028020019C
(1782308579.459465) can1 60B#204FEC00802001B4
(1782308579.459724) can1 60B#0050E3FD802001B7
(1782308579.459926) can1 60C#3884A33A0220E8
(1782308579.460131) can1 60C#2084633A0220E8
(1782308579.460500) can1 60C#0084A33A0220E8
(1782308579.460702) can1 60D#387D0FA070801205
(1782308579.461006) can1 60D#207D2FA17080190C
(1782308579.461228) can1 60D#007D0FA67080190B
(1782308579.529006) can1 60A#03FC0110
(1782308579.529194) can1 60B#384F04028020019C
(1782308579.529475) can1 60B#204FEC00802001B4
(1782308579.529683) can1 60B#0050E3FD802001B7
(1782308579.529953) can1 60C#3884A33A0220E8
(1782308579.530186) can1 60C#2084633A0220E8
(1782308579.530437) can1 60C#0084A33A0220E8
(1782308579.530925) can1 60D#387D0FA070801205
(1782308579.531027) can1 60D#207D2FA17080190C
(1782308579.531346) can1 60D#007D0FA67080190B
(1782308579.604029) can1 60A#03FC0310
(1782308579.604258) can1 60B#384F04028020019C
(1782308579.604485) can1 60B#204FEC00802001B4
(1782308579.604785) can1 60B#0050E3FD802001B7
(1782308579.604964) can1 60C#3884A33A0220E8
(1782308579.605206) can1 60C#2084633A0220E8
(1782308579.605457) can1 60C#0084A33A0220E8
(1782308579.605804) can1 60D#387D0FA070801205
(1782308579.605995) can1 60D#207D2FA17080190C
(1782308579.606311) can1 60D#007D0FA67080190B
(1782308579.679029) can1 60A#03FC0510
(1782308579.679239) can1 60B#384F04028020019C
(1782308579.679546) can1 60B#204FEC00802001B4
(1782308579.679928) can1 60B#0050E3FD802001B7
(1782308579.680027) can1 60C#3884A33A0220E8
(1782308579.680194) can1 60C#2084633A0220E8
(1782308579.680445) can1 60C#0084A33A0220E8
(1782308579.680799) can1 60D#387D0FA070801205
(1782308579.681006) can1 60D#207D6FA17080190C
(1782308579.681387) can1 60D#007D0FA67080190B
(1782308579.734138) can1 201#4019000010F40000
(1782308579.734338) can1 700#041E0200
(1782308579.754144) can1 60A#03FC0710
(1782308579.754348) can1 60B#384F04028020019C
(1782308579.754635) can1 60B#204FEC00802001B4
(1782308579.754839) can1 60B#0050E3FD802001B7
(1782308579.754981) can1 60C#3884A33A0220E8
(1782308579.755263) can1 60C#2084633A0220E8
(1782308579.755612) can1 60C#0084A33A0220E8
(1782308579.755847) can1 60D#387D0FA070801205
(1782308579.756028) can1 60D#207D8FA17080190C
(1782308579.756316) can1 60D#007D0FA67080190B
(1782308579.829028) can1 60A#03FC0910
(1782308579.829324) can1 60B#384F04028020019C
(1782308579.829591) can1 60B#204FEC00802001B4
(1782308579.829857) can1 60B#0050E3FD802001B7
(1782308579.830029) can1 60C#3884A33A0220E8
(1782308579.830280) can1 60C#2084633A0220E8
(1782308579.830528) can1 60C#0084A33A0220E8
(1782308579.830903) can1 60D#387D0FA070801205
(1782308579.831028) can1 60D#207D8FA17080190C
(1782308579.831427) can1 60D#007D0FA67080190B
(1782308579.899026) can1 60A#03FC0B10
(1782308579.899367) can1 60B#384F04028020019C
(1782308579.899582) can1 60B#204FEC00802001B4
(1782308579.899811) can1 60B#0050E3FD802001B7
(1782308579.900016) can1 60C#3884A33A0220E8
(1782308579.900300) can1 60C#2084633A0220E8
(1782308579.900551) can1 60C#0084A33A0220E8
(1782308579.900830) can1 60D#387D0FA070801205
(1782308579.901134) can1 60D#207D6FA17080190C
(1782308579.901358) can1 60D#007D0FA67080190B
(1782308579.974028) can1 60A#03FC0D10
(1782308579.974389) can1 60B#384F04028020019C
(1782308579.974595) can1 60B#204FEC00802001B4
(1782308579.974853) can1 60B#0050E3FD802001B7
(1782308579.975028) can1 60C#3884A33A0220E8
(1782308579.975329) can1 60C#2084633A0220E8
(1782308579.975575) can1 60C#0084A33A0220E8
(1782308579.975949) can1 60D#387D0FA070801205
(1782308579.976136) can1 60D#207D8FA17080190C
(1782308579.976371) can1 60D#007D0FA67080190B
(1782308580.049183) can1 60A#03FC0F10
(1782308580.049364) can1 60B#384F04028020019C
(1782308580.049689) can1 60B#204FEC00802001B4
(1782308580.049891) can1 60B#0050E3FD802001B7
(1782308580.050029) can1 60C#3884A33A0220E8
(1782308580.050375) can1 60C#2084633A0220E8
(1782308580.050713) can1 60C#0084A33A0220E8
(1782308580.050905) can1 60D#387D0FA070801205
(1782308580.051202) can1 60D#207D6FA17080190C
(1782308580.051438) can1 60D#007D0FA67080190B
(1782308580.124206) can1 60A#03FC1110
(1782308580.124397) can1 60B#384F04028020019B
(1782308580.124711) can1 60B#204FEC00802001B4
(1782308580.124881) can1 60B#0050E3FD802001B7
(1782308580.125129) can1 60C#3884A33A0220E8
(1782308580.125483) can1 60C#2084633A0220E8
(1782308580.125673) can1 60C#0084A33A0220E8
(1782308580.125986) can1 60D#387D0FA070801205
(1782308580.126125) can1 60D#207D4FA17080190C
(1782308580.126499) can1 60D#007D0FA67080190B
(1782308580.194236) can1 60A#03FC1310
(1782308580.194413) can1 60B#384F04028020019C
(1782308580.194758) can1 60B#204FEC00802001B4
(1782308580.194964) can1 60B#0050E3FD802001B7
(1782308580.195146) can1 60C#3884A33A0220E8
(1782308580.195510) can1 60C#2084633A0220E8
(1782308580.195700) can1 60C#0084A33A0220E8
(1782308580.195938) can1 60D#387D0FA070801205
(1782308580.196185) can1 60D#207D6FA17080190C
(1782308580.196480) can1 60D#007D0FA67080190B
(1782308580.269257) can1 60A#03FC1510
(1782308580.269449) can1 60B#384F04028020019C
(1782308580.269765) can1 60B#204FEC00802001B4
(1782308580.269937) can1 60B#0050E3FD802001B7
(1782308580.270174) can1 60C#3884A33A0220E8
(1782308580.270543) can1 60C#2084633A0220E8
(1782308580.270734) can1 60C#0084A33A0220E8
(1782308580.270969) can1 60D#387D0FA070801205
(1782308580.271247) can1 60D#207D4FA17080190C
(1782308580.271471) can1 60D#007D0FA67080190B
(1782308580.344264) can1 60A#03FC1710
(1782308580.344457) can1 60B#384F04028020019C
(1782308580.344801) can1 60B#204FEC00802001B4
(1782308580.344991) can1 60B#0050E3FD802001B7
(1782308580.345218) can1 60C#3884A33A0220E8
(1782308580.345464) can1 60C#2084633A0220E8
(1782308580.345714) can1 60C#0084A33A0220E8
(1782308580.345955) can1 60D#387D0FA070801205
(1782308580.346312) can1 60D#207D4FA17080190C
(1782308580.346511) can1 60D#007D0FA67080190B
(1782308580.419264) can1 60A#03FC1910
(1782308580.419487) can1 60B#384F04028020019C
(1782308580.419903) can1 60B#204FEC00802001B4
(1782308580.420007) can1 60B#0050E3FD802001B7
(1782308580.420272) can1 60C#3884A33A0220E8
(1782308580.420480) can1 60C#2084633A0220E8
(1782308580.420722) can1 60C#0084A33A0220E8
(1782308580.420981) can1 60D#387D0FA070801205
(1782308580.421260) can1 60D#207D4FA17080190C
(1782308580.421602) can1 60D#007D0FA67080190B
(1782308580.494266) can1 60A#03FC1B10
(1782308580.494602) can1 60B#384F04028020019B
(1782308580.494826) can1 60B#204FEC00802001B4
(1782308580.495027) can1 60B#0050E3FD802001B7
(1782308580.495286) can1 60C#3884A33A0220E8
(1782308580.495579) can1 60C#2084633A0220E8
(1782308580.495876) can1 60C#0084A33A0220E8
(1782308580.496016) can1 60D#387D0FA070801205
(1782308580.496384) can1 60D#207D4FA17080190C
(1782308580.496577) can1 60D#007D0FA67080190B
(1782308580.564343) can1 60A#03FC1D10
(1782308580.564538) can1 60B#384F04028020019B
(1782308580.564909) can1 60B#204FEC00802001B4
(1782308580.565029) can1 60B#0050E3FD802001B7
(1782308580.565383) can1 60C#3884A33A0220E8
(1782308580.565572) can1 60C#2084633A0220E8
(1782308580.565884) can1 60C#0084A33A0220E8
(1782308580.566028) can1 60D#387D0FA070801205
(1782308580.566408) can1 60D#207D2FA17080190C
(1782308580.566598) can1 60D#007D0FA67080190B
(1782308580.639377) can1 60A#03FC1F10
(1782308580.639572) can1 60B#384F04028020019B
(1782308580.639878) can1 60B#204FEC00802001B4
(1782308580.640029) can1 60B#0050E3FD802001B7
(1782308580.640406) can1 60C#3884A33A0220E8
(1782308580.640576) can1 60C#2084633A0220E8
(1782308580.640878) can1 60C#0084A33A0220E8
(1782308580.641024) can1 60D#387D0FA070801205
(1782308580.641426) can1 60D#207D4FA17080190C
(1782308580.641616) can1 60D#007D0FA67080190B
(1782308580.714414) can1 60A#03FC2110
(1782308580.714620) can1 60B#384F04028020019B
(1782308580.714939) can1 60B#204FEC00802001B4
(1782308580.715130) can1 60B#0050E3FD802001B7
(1782308580.715333) can1 60C#3884A33A0220E8
(1782308580.715530) can1 60C#2084633A0220E8
(1782308580.715796) can1 60C#0084A33A0220E8
(1782308580.716026) can1 60D#387D0FA070801205
(1782308580.716356) can1 60D#207D2FA17080190C
(1782308580.716715) can1 60D#007D0FA67080190B
(1782308580.734439) can1 201#4019000010F40000
(1782308580.734645) can1 700#041E0200
(1782308580.789437) can1 60A#03FC2310
(1782308580.789628) can1 60B#384F04028020019B
(1782308580.789867) can1 60B#204FEC00802001B4
(1782308580.790028) can1 60B#0050E3FD802001B7
(1782308580.790454) can1 60C#3884A33A0220E8
(1782308580.790675) can1 60C#2084633A0220E8
(1782308580.790878) can1 60C#0084A33A0220E8
(1782308580.791180) can1 60D#387D0FA070801205
(1782308580.791378) can1 60D#207D2FA17080190C
(1782308580.791626) can1 60D#007D0FA67080190B
(1782308580.859362) can1 60A#03FC2510
(1782308580.859681) can1 60B#384F04028020019B
(1782308580.859915) can1 60B#204FEC00802001B4
(1782308580.860139) can1 60B#0050E3FD802001B7
(1782308580.860381) can1 60C#3884A33A0220E8
(1782308580.860627) can1 60C#2084633A0220E8
(1782308580.860959) can1 60C#0084A33A0220E8
(1782308580.861146) can1 60D#387D0FA070801205
(1782308580.861507) can1 60D#207D0FA17080190C
(1782308580.861709) can1 60D#007D0FA67080190B
(1782308580.934379) can1 60A#03FC2710
(1782308580.934727) can1 60B#384F04028020019B
(1782308580.934888) can1 60B#204FEC00802001B4
(1782308580.935153) can1 60B#0050E3FD802001B7
(1782308580.935406) can1 60C#3884A33A0220E8
(1782308580.935658) can1 60C#2084633A0220E8
(1782308580.935871) can1 60C#0084A33A0220E8
(1782308580.936121) can1 60D#387D0FA070801205
(1782308580.936531) can1 60D#207CEFA17080190C
(1782308580.936722) can1 60D#007D0FA67080190B
(1782308581.009505) can1 60A#03FC2910
(1782308581.009696) can1 60B#384F04028020019B
(1782308581.009950) can1 60B#204FEC00802001B4
(1782308581.010224) can1 60B#0050E3FD802001B7
(1782308581.010447) can1 60C#3884A33A0220E8
(1782308581.010735) can1 60C#2084633A0220E8
(1782308581.010937) can1 60C#0084A33A0220E8
(1782308581.011223) can1 60D#387D0FA070801205
(1782308581.011439) can1 60D#207CEFA17080190C
(1782308581.011718) can1 60D#007D0FA67080190B
(1782308581.079525) can1 60A#03FC2B10
(1782308581.079686) can1 60B#384F04028020019B
(1782308581.080023) can1 60B#204FEC00802001B4
(1782308581.080253) can1 60B#0050E3FD802001B7
(1782308581.080509) can1 60C#3884A33A0220E8
(1782308581.080748) can1 60C#2084633A0220E8
(1782308581.080958) can1 60C#0084A33A0220E8
(1782308581.081210) can1 60D#387D0FA070801205
(1782308581.081481) can1 60D#207CCFA17080190C
(1782308581.081804) can1 60D#007D0FA67080190B
(1782308581.154510) can1 60A#03FC2D10
(1782308581.154710) can1 60B#384F04028020019B
(1782308581.154981) can1 60B#204FEC00802001B4
(1782308581.155259) can1 60B#0050E3FD802001B7
(1782308581.155514) can1 60C#3884A33A0220E8
(1782308581.155905) can1 60C#2084633A0220E8
(1782308581.156009) can1 60C#0084A33A0220E8
(1782308581.156271) can1 60D#387D0FA070801205
(1782308581.156581) can1 60D#207CCFA17080190C
(1782308581.156799) can1 60D#007D0FA67080190B
(1782308581.229580) can1 60A#03FC2F10
(1782308581.229882) can1 60B#384F04028020019B
(1782308581.229985) can1 60B#204FEC00802001B4
(1782308581.230357) can1 60B#0050E3FD802001B7
(1782308581.230522) can1 60C#3884A33A0220E8
(1782308581.230804) can1 60C#2084633A0220E8
(1782308581.230967) can1 60C#0084A33A0220E8
(1782308581.231249) can1 60D#387D0FA070801205
(1782308581.231517) can1 60D#207CCFA17080190C
(1782308581.231800) can1 60D#007D0FA67080190B
(1782308581.304578) can1 60A#03FC3110
(1782308581.304876) can1 60B#384F04028020019B
(1782308581.305029) can1 60B#204FEC00802001B4
(1782308581.305366) can1 60B#0050E3FD802001B7
(1782308581.305558) can1 60C#3884A33A0220E8
(1782308581.305812) can1 60C#2084633A0220E8
(1782308581.305987) can1 60C#0084A33A0220E8
(1782308581.306281) can1 60D#387D0FA070801205
(1782308581.306555) can1 60D#207CEFA17080190C
(1782308581.306904) can1 60D#007D0FA67080190B
(1782308581.374567) can1 60A#03FC3310
(1782308581.374845) can1 60B#384F04028020019B
(1782308581.375028) can1 60B#204FEC00802001B4
(1782308581.375395) can1 60B#0050E3FD802001B7
(1782308581.375559) can1 60C#3884A33A0220E8
(1782308581.375890) can1 60C#2084633A0220E8
(1782308581.376027) can1 60C#0084A33A0220E8
(1782308581.376392) can1 60D#387D0FA070801205
(1782308581.376628) can1 60D#207D0FA17080190C
(1782308581.376867) can1 60D#007D0FA67080190B
(1782308581.449917) can1 60A#03FC3510
(1782308581.450029) can1 60B#384F04028020019B
(1782308581.450343) can1 60B#204FEC00802001B4
(1782308581.450621) can1 60B#0050E3FD802001B7
(1782308581.450832) can1 60C#3884A33A0220E8
(1782308581.451028) can1 60C#2084633A0220E8
(1782308581.451305) can1 60C#0084A33A0220E8
(1782308581.451584) can1 60D#387D0FA070801205
(1782308581.451824) can1 60D#207D2FA17080190C
(1782308581.452026) can1 60D#007D0FA67080190B
(1782308581.524678) can1 60A#03FC3710
(1782308581.524867) can1 60B#384F04028020019B
(1782308581.525029) can1 60B#204FEC00802001B4
(1782308581.525451) can1 60B#0050E3FD802001B7
(1782308581.525631) can1 60C#3884A33A0220E8
(1782308581.525854) can1 60C#2084633A0220E8
(1782308581.526198) can1 60C#0084A33A0220E8
(1782308581.526368) can1 60D#387D0FA070801205
(1782308581.526710) can1 60D#207D2FA17080190C
(1782308581.526918) can1 60D#007D0FA67080190B
(1782308581.599701) can1 60A#03FC3910
(1782308581.599882) can1 60B#384F04028020019B
(1782308581.600141) can1 60B#204FEC00802001B4
(1782308581.600476) can1 60B#0050E3FD802001B7
(1782308581.600640) can1 60C#3884A33A0220E8
(1782308581.600955) can1 60C#2084633A0220E8
(1782308581.601028) can1 60C#0084A33A0220E8
(1782308581.601484) can1 60D#387D0FA070801205
(1782308581.601686) can1 60D#207D2FA17080190C
(1782308581.601961) can1 60D#007D0FA67080190B
(1782308581.669701) can1 60A#03FC3B10
(1782308581.669910) can1 60B#384F04028020019B
(1782308581.670147) can1 60B#204FEC00802001B4
(1782308581.670530) can1 60B#0050E3FD802001B7
(1782308581.670634) can1 60C#3884A33A0220E8
(1782308581.670900) can1 60C#2084633A0220E8
(1782308581.671028) can1 60C#0084A33A0220E8
(1782308581.671494) can1 60D#387D0FA070801205
(1782308581.671679) can1 60D#207D0FA17080190C
(1782308581.672019) can1 60D#007D0FA67080190B
(1782308581.734926) can1 201#4019000010F40000
(1782308581.735028) can1 700#041E0200
(1782308581.744727) can1 60A#03FC3D10
(1782308581.744919) can1 60B#384F04028020019B
(1782308581.745195) can1 60B#204FEC00802001B4
(1782308581.745468) can1 60B#0050E3FD802001B7
(1782308581.745684) can1 60C#3884A33A0220E8
(1782308581.745933) can1 60C#2084633A0220E8
(1782308581.746122) can1 60C#0084A33A0220E8
(1782308581.746532) can1 60D#387D0FA070801205
(1782308581.746722) can1 60D#207D0FA17080190C
(1782308581.747028) can1 60D#007D0FA67080190B
(1782308581.819778) can1 60A#03FC3F10
(1782308581.819970) can1 60B#384F04028020019B
(1782308581.820195) can1 60B#204FEC00802001B4
(1782308581.820456) can1 60B#0050E3FD802001B7
(1782308581.820681) can1 60C#3884A33A0220E8
(1782308581.820933) can1 60C#2084633A0220E8
(1782308581.821224) can1 60C#0084A33A0220E8
(1782308581.821445) can1 60D#387D0FA070801205
(1782308581.821718) can1 60D#207CEFA17080190C
(1782308581.821977) can1 60D#007D0FA67080190B
(1782308581.889782) can1 60A#03FC4110
(1782308581.889987) can1 60B#384F04028020019B
(1782308581.890254) can1 60B#204FEC00802001B4
(1782308581.890475) can1 60B#0050E3FD802001B7
(1782308581.890811) can1 60C#3884A33A0220E8
(1782308581.890978) can1 60C#2084633A0220E8
(1782308581.891232) can1 60C#0084A33A0220E8
(1782308581.891564) can1 60D#387D0FA070801205
(1782308581.891904) can1 60D#207CEFA17080190C
(1782308581.892009) can1 60D#007D0FA67080190B
(1782308581.964804) can1 60A#03FC4310
(1782308581.964994) can1 60B#384F04028020019B
(1782308581.965263) can1 60B#204FEC00802001B4
(1782308581.965490) can1 60B#0050E3FD802001B7
(1782308581.965806) can1 60C#3884A33A0220E8
(1782308581.965977) can1 60C#2084633A0220E8
(1782308581.966230) can1 60C#0084A33A0220E8
(1782308581.966500) can1 60D#387D0FA070801205
(1782308581.966802) can1 60D#207D0FA17080190C
(1782308581.967022) can1 60D#007D0FA67080190B
(1782308582.039916) can1 60A#03FC4510
(1782308582.040020) can1 60B#384F04028020019B
(1782308582.040293) can1 60B#204FEC00802001B4
(1782308582.040580) can1 60B#0050E3FD802001B7
(1782308582.040803) can1 60C#3884A33A0220E8
(1782308582.041000) can1 60C#2084633A0220E8
(1782308582.041260) can1 60C#0084A33A0220E8
(1782308582.041531) can1 60D#387D0FA070801205
(1782308582.041804) can1 60D#207D0FA17080190C
(1782308582.042146) can1 60D#007D0FA67080190B
(1782308582.114921) can1 60A#03FC4710
(1782308582.115119) can1 60B#384F04028020019C
(1782308582.115424) can1 60B#204FEC00802001B4
(1782308582.115622) can1 60B#0050E3FD802001B7
(1782308582.115825) can1 60C#3884A33A0220E8
(1782308582.116028) can1 60C#2084633A0220E8
(1782308582.116365) can1 60C#0084A33A0220E8
(1782308582.116556) can1 60D#387D0FA070801205
(1782308582.116823) can1 60D#207D0FA17080190C
(1782308582.117027) can1 60D#007D0FA67080190B
(1782308582.189908) can1 60A#03FC4910
(1782308582.190029) can1 60B#384F04028020019C
(1782308582.190360) can1 60B#204FEC00802001B4
(1782308582.190595) can1 60B#0050E3FD802001B7
(1782308582.190831) can1 60C#3884A33A0220E8
(1782308582.191022) can1 60C#2084633A0220E8
(1782308582.191306) can1 60C#0084A33A0220E8
(1782308582.191582) can1 60D#387D2FA070801205
(1782308582.191925) can1 60D#207D2FA17080190C
(1782308582.192027) can1 60D#007D0FA67080190B
(1782308582.259829) can1 60A#03FC4B10
(1782308582.260125) can1 60B#384F04028020019C
(1782308582.260346) can1 60B#204FEC00802001B4
(1782308582.260585) can1 60B#0050E3FD802001B7
(1782308582.260864) can1 60C#3884A33A0220E8
(1782308582.261027) can1 60C#2084633A0220E8
(1782308582.261330) can1 60C#0084A33A0220E8
(1782308582.261707) can1 60D#387D6FA070801205
(1782308582.261890) can1 60D#207D2FA17080190C
(1782308582.262122) can1 60D#007D0FA67080190B
(1782308582.334865) can1 60A#03FC4D10
(1782308582.335028) can1 60B#384F04028020019C
(1782308582.335434) can1 60B#204FE400802001B4
(1782308582.335694) can1 60B#0050E3FD802001B7
(1782308582.335913) can1 60C#3884A33A0220E8
(1782308582.336028) can1 60C#2084633A0220E8
(1782308582.336358) can1 60C#0084A33A0220E8
(1782308582.336731) can1 60D#387D8FA070801205
(1782308582.336916) can1 60D#207D4FA17080190C
(1782308582.337129) can1 60D#007D0FA67080190B
(1782308582.409958) can1 60A#03FC4F10
(1782308582.410140) can1 60B#384F04028020019C
(1782308582.410419) can1 60B#204FE400802001B4
(1782308582.410693) can1 60B#0050E3FD802001B7
(1782308582.410882) can1 60C#3884A33A0220E8
(1782308582.411133) can1 60C#2084633A0220E8
(1782308582.411489) can1 60C#0084A33A0220E8
(1782308582.411675) can1 60D#387DAFA070801205
(1782308582.411973) can1 60D#207D4FA17080190C
(1782308582.412245) can1 60D#007CEFA67080190B
(1782308582.484899) can1 60A#03FC5110
(1782308582.485150) can1 60B#384F04028020019C
(1782308582.485508) can1 60B#204FE400802001B4
(1782308582.485693) can1 60B#0050E3FD802001B7
(1782308582.485926) can1 60C#3884A33A0220E8
(1782308582.486133) can1 60C#2084633A0220E8
(1782308582.486519) can1 60C#0084A33A0220E8
(1782308582.486702) can1 60D#387DCFA070801205
(1782308582.487010) can1 60D#207D6FA17080190C
(1782308582.487244) can1 60D#007D0FA67080190B
(1782308582.554979) can1 60A#03FC5310
(1782308582.555183) can1 60B#384F04028020019C
(1782308582.555515) can1 60B#204FE400802001B4
(1782308582.555710) can1 60B#0050E3FD802001B7
(1782308582.555930) can1 60C#3884A33A0220E8
(1782308582.556198) can1 60C#2084633A0220E8
(1782308582.556440) can1 60C#0084A33A0220E8
(1782308582.556710) can1 60D#387DCFA070801205
(1782308582.557028) can1 60D#207DAFA17080190C
(1782308582.557230) can1 60D#007D0FA67080190B
(1782308582.630279) can1 60A#03FC5510
(1782308582.630581) can1 60B#384F04028020019C
(1782308582.630869) can1 60B#204FE400802001B4
(1782308582.631029) can1 60B#0050E3FD802001B7
(1782308582.631313) can1 60C#3884A33A0220E8
(1782308582.631567) can1 60C#2084633A0220E8
(1782308582.631840) can1 60C#0084A33A0220E8
(1782308582.632017) can1 60D#387DAFA070801205
(1782308582.632298) can1 60D#207DAFA17080190C
(1782308582.632550) can1 60D#007D0FA67080190B
(1782308582.705029) can1 60A#03FC5710
(1782308582.705245) can1 60B#384F04028020019C
(1782308582.705565) can1 60B#204FE400802001B4
(1782308582.705885) can1 60B#0050E3FD802001B7
(1782308582.706005) can1 60C#3884A33A0220E8
(1782308582.706233) can1 60C#2084633A0220E8
(1782308582.706483) can1 60C#0084A33A0220E8
(1782308582.706803) can1 60D#387D6FA070801205
(1782308582.707001) can1 60D#207D8FA17080190C
(1782308582.707275) can1 60D#007D0FA67080190B
(1782308582.735144) can1 201#4019000010F40000
(1782308582.735349) can1 700#041E0200
(1782308582.775028) can1 60A#03FC5910
(1782308582.775233) can1 60B#384F04028020019B
(1782308582.775475) can1 60B#204FE400802001B4
(1782308582.775770) can1 60B#0050E3FD802001B7
(1782308582.776019) can1 60C#3884A33A0220E8
(1782308582.776355) can1 60C#2084633A0220E8
(1782308582.776547) can1 60C#0084A33A0220E8
(1782308582.776903) can1 60D#387D6FA070801205
(1782308582.777028) can1 60D#207D6FA17080190C
(1782308582.777423) can1 60D#007D0FA67080190B
(1782308582.850029) can1 60A#03FC5B10
(1782308582.850313) can1 60B#384F04028020019C
(1782308582.850602) can1 60B#204FE400802001B4
(1782308582.850842) can1 60B#0050E3FD802001B7
(1782308582.851028) can1 60C#3884A33A0220E8
(1782308582.851271) can1 60C#2084633A0220E8
(1782308582.851537) can1 60C#0084A33A0220E8
(1782308582.851803) can1 60D#387D4FA070801205
(1782308582.852140) can1 60D#207D4FA17080190C
(1782308582.852330) can1 60D#007D0FA67080190B
(1782308582.925131) can1 60A#03FC5D10
(1782308582.925325) can1 60B#384F04028020019C
(1782308582.925637) can1 60B#204FE400802001B4
(1782308582.925862) can1 60B#0050E3FD802001B7
(1782308582.926028) can1 60C#3884A33A0220E8
(1782308582.926367) can1 60C#2084633A0220E8
(1782308582.926605) can1 60C#0084A33A0220E8
(1782308582.926829) can1 60D#387D2FA070801205
(1782308582.927027) can1 60D#207D2FA670801908
(1782308582.927368) can1 60D#007D0FA67080190B
(1782308583.000153) can1 60A#03FC5F10
(1782308583.000339) can1 60B#384F04028020019C
(1782308583.000664) can1 60B#204FEC00802001B4
(1782308583.000850) can1 60B#0050E3FD802001B7
(1782308583.001198) can1 60C#3884A33A0220E8
(1782308583.001373) can1 60C#2084633A0220E8
(1782308583.001625) can1 60C#0084A33A0220E8
(1782308583.001846) can1 60D#387D0FA070801205
(1782308583.002211) can1 60D#207CEFA670801908
(1782308583.002416) can1 60D#007D0FA67080190B
(1782308583.075038) can1 60A#03FC6110
(1782308583.075328) can1 60B#384F04028020019B
(1782308583.075603) can1 60B#204FEC00802001B4
(1782308583.075856) can1 60B#0050E3FD802001B7
(1782308583.076027) can1 60C#3884A33A0220E8
(1782308583.076410) can1 60C#2084633A0220E8
(1782308583.076644) can1 60C#0084A33A0220E8
(1782308583.076899) can1 60D#387D0FA070801205
(1782308583.077027) can1 60D#207CCFA670801908
(1782308583.077485) can1 60D#007D0FA67080190B
(1782308583.145196) can1 60A#03FC6310
(1782308583.145388) can1 60B#384F04028020019B
(1782308583.145716) can1 60B#204FEC00802001B4
(1782308583.145916) can1 60B#0050E3FD802001B7
(1782308583.146231) can1 60C#3884A33A0220E8
(1782308583.146414) can1 60C#2084633A0220E8
(1782308583.146731) can1 60C#0084A33A0220E8
(1782308583.146913) can1 60D#387CEFA070801205
(1782308583.147203) can1 60D#207CCFA670801908
(1782308583.147507) can1 60D#007D0FA67080190B
(1782308583.220169) can1 60A#03FC6510
(1782308583.220414) can1 60B#384F04028020019B
(1782308583.220734) can1 60B#204FEC00802001B4
(1782308583.220943) can1 60B#0050E3FD802001B7
(1782308583.221155) can1 60C#3884A33A0220E8
(1782308583.221515) can1 60C#2084633A0220E8
(1782308583.221745) can1 60C#0084A33A0220E8
(1782308583.221914) can1 60D#387CEFA070801205
(1782308583.222223) can1 60D#207CAFA670801908
(1782308583.222494) can1 60D#007D0FA67080190B
(1782308583.295177) can1 60A#04FC6710
(1782308583.295398) can1 60B#384F04028020019B
(1782308583.295674) can1 60B#104FC3F78020019F
(1782308583.295931) can1 60B#204FEC00802001B4
(1782308583.296221) can1 60B#0050E3FD802001B7
(1782308583.296499) can1 60C#3884A33A0220E8
(1782308583.296711) can1 60C#10AD278D822064
(1782308583.296945) can1 60C#2084633A0220E8
(1782308583.297200) can1 60C#0084A33A0220E8
(1782308583.297459) can1 60D#387CEFA070801205
(1782308583.297800) can1 60D#107D0FA070800505
(1782308583.298020) can1 60D#207CAFA670801908
(1782308583.298270) can1 60D#007D0FA67080190B
(1782308583.370234) can1 60A#04FC6910
(1782308583.370436) can1 60B#384F04028020019B
(1782308583.370805) can1 60B#104FC3F78020019F
(1782308583.370995) can1 60B#204FEC00802001B4
(1782308583.371271) can1 60B#0050E3FD802001B7
(1782308583.371481) can1 60C#3884A33A0220E8
(1782308583.371690) can1 60C#10AD2D8D82204C
(1782308583.371950) can1 60C#2084633A0220E8
(1782308583.372206) can1 60C#0084A33A0220E8
(1782308583.372468) can1 60D#387CEFA070801205
(1782308583.372909) can1 60D#107D0FA070800505
(1782308583.373013) can1 60D#207CAFA670801908
(1782308583.373326) can1 60D#007D0FA67080190B
(1782308583.445294) can1 60A#04FC6B10
(1782308583.445486) can1 60B#384F04028020019C
(1782308583.445903) can1 60B#104FC3F78020019F
(1782308583.446009) can1 60B#204FEC00802001B4
(1782308583.446326) can1 60B#0050E3FD802001B7
(1782308583.446522) can1 60C#3884A33A0220E8
(1782308583.446813) can1 60C#10AD6F8D82202C
(1782308583.446999) can1 60C#2084633A0220E8
(1782308583.447250) can1 60C#0084A33A0220E8
(1782308583.447526) can1 60D#387CEFA070801205
(1782308583.447803) can1 60D#107D0FA070800505
(1782308583.448139) can1 60D#207CAFA670801908
(1782308583.448338) can1 60D#007D0FA67080190B
(1782308583.515266) can1 60A#03FC6D10
(1782308583.515533) can1 60B#384F04028020019C
(1782308583.515902) can1 60B#204FEC00802001B4
(1782308583.516008) can1 60B#0050E3FD802001B7
(1782308583.516336) can1 60C#3884A33A0220E8
(1782308583.516509) can1 60C#2084633A0220E8
(1782308583.516807) can1 60C#0084A33A0220E8
(1782308583.517020) can1 60D#387CEFA070801205
(1782308583.517277) can1 60D#207CCFA670801908
(1782308583.517553) can1 60D#007D0FA67080190B
(1782308583.590336) can1 60A#03FC6F10
(1782308583.590541) can1 60B#384F04028020019C
(1782308583.590803) can1 60B#204FEC00802001B4
(1782308583.591029) can1 60B#0050E3FD802001B7
(1782308583.591357) can1 60C#3884A33A0220E8
(1782308583.591567) can1 60C#2084633A0220E8
(1782308583.591878) can1 60C#0084A33A0220E8
(1782308583.592027) can1 60D#387CEFA070801205
(1782308583.592403) can1 60D#207CEFA670801908
(1782308583.592593) can1 60D#007D0FA67080190B
(1782308583.665322) can1 60A#03FC7110
(1782308583.665560) can1 60B#384F04028020019C
(1782308583.665883) can1 60B#204FEC00802001B4
(1782308583.666029) can1 60B#0050E3FD802001B7
(1782308583.666406) can1 60C#3884A33A0220E8
(1782308583.666598) can1 60C#2084633A0220E8
(1782308583.666849) can1 60C#0084A33A0220E8
(1782308583.667027) can1 60D#387CEFA070801205
(1782308583.667395) can1 60D#207D0FA670801908
(1782308583.667649) can1 60D#007D0FA67080190B
(1782308583.735473) can1 201#4019000010F40000
(1782308583.735664) can1 700#041E0200
(1782308583.740383) can1 60A#03FC7310
(1782308583.740593) can1 60B#384F04028020019C
(1782308583.740824) can1 60B#204FEC00802001B4
(1782308583.741028) can1 60B#0050E3FD802001B7
(1782308583.741430) can1 60C#3884A33A0220E8
(1782308583.741653) can1 60C#2084633A0220E8
(1782308583.741851) can1 60C#0084A33A0220E8
(1782308583.742027) can1 60D#387CEFA070801205
(1782308583.742348) can1 60D#207D2FA670801908
(1782308583.742726) can1 60D#007D0FA67080190B
(1782308583.810400) can1 60A#03FC7510
(1782308583.810613) can1 60B#384F04028020019C
(1782308583.810948) can1 60B#204FEC00802001B4
(1782308583.811028) can1 60B#0050E3FD802001B7
(1782308583.811375) can1 60C#3884A33A0220E8
(1782308583.811595) can1 60C#2084633A0220E8
(1782308583.811966) can1 60C#0084A33A0220E8
(1782308583.812040) can1 60D#387CEFA070801205
(1782308583.812475) can1 60D#207D0FA670801908
(1782308583.812681) can1 60D#007D0FA67080190B
(1782308583.885459) can1 60A#03FC7710
(1782308583.885640) can1 60B#384F04028020019C
(1782308583.885988) can1 60B#204FEC00802001B4
(1782308583.886027) can1 60B#0050E3FD802001B7
(1782308583.886483) can1 60C#3884A33A0220E8
(1782308583.886665) can1 60C#2084633A0220E8
(1782308583.886941) can1 60C#0084A33A0220E8
(1782308583.887028) can1 60D#387CEFA070801205
(1782308583.887506) can1 60D#207D0FA670801908
(1782308583.887689) can1 60D#007D0FA67080190B
(1782308583.960411) can1 60A#03FC7910
(1782308583.960709) can1 60B#384F04028020019C
(1782308583.960948) can1 60B#204FEC00802001B4
(1782308583.961162) can1 60B#0050E3FD802001B7
(1782308583.961407) can1 60C#3884A33A0220E8
(1782308583.961652) can1 60C#2084633A0220E8
(1782308583.961897) can1 60C#0084A33A0220E8
(1782308583.962155) can1 60D#387CEFA070801205
(1782308583.962427) can1 60D#207CEFA670801908
(1782308583.962674) can1 60D#007D0FA67080190B
(1782308584.035402) can1 60A#03FC7B10
(1782308584.035758) can1 60B#384F04028020019C
(1782308584.035956) can1 60B#204FEC00802001B4
(1782308584.036222) can1 60B#0050E3FD802001B7
(1782308584.036426) can1 60C#3884A33A0220E8
(1782308584.036677) can1 60C#2084633A0220E8
(1782308584.036903) can1 60C#0084A33A0220E8
(1782308584.037181) can1 60D#387CEFA070801205
(1782308584.037567) can1 60D#207CEFA670801908
(1782308584.037754) can1 60D#007D0FA67080190B
(1782308584.105529) can1 60A#03FC7D10
(1782308584.105720) can1 60B#384F04028020019C
(1782308584.105989) can1 60B#204FEC00802001B4
(1782308584.106234) can1 60B#0050E3FD802001B7
(1782308584.106459) can1 60C#3884A33A0220E8
(1782308584.106706) can1 60C#2084633A0220E8
(1782308584.106954) can1 60C#0084A33A0220E8
(1782308584.107256) can1 60D#387CEFA070801205
(1782308584.107579) can1 60D#207CCFA670801908
(1782308584.107784) can1 60D#007D0FA67080190B
(1782308584.180564) can1 60A#03FC7F10
(1782308584.180754) can1 60B#384F04028020019C
(1782308584.181029) can1 60B#204FEC00802001B4
(1782308584.181276) can1 60B#0050E3FD802001B7
(1782308584.181496) can1 60C#3884A33A0220E8
(1782308584.181725) can1 60C#2084633A0220E8
(1782308584.181972) can1 60C#0084A33A0220E8
(1782308584.182345) can1 60D#387CEFA070801205
(1782308584.182536) can1 60D#207CCFA670801908
(1782308584.182832) can1 60D#007D0FA67080190B
(1782308584.255482) can1 60A#03FC8110
(1782308584.255802) can1 60B#384F04028020019C
(1782308584.255995) can1 60B#204FEC00802001B4
(1782308584.256354) can1 60B#0050E3FD802001B7
(1782308584.256518) can1 60C#3884A33A0220E8
(1782308584.256798) can1 60C#2084633A0220E8
(1782308584.257008) can1 60C#0084A33A0220E8
(1782308584.257252) can1 60D#387CEFA070801205
(1782308584.257531) can1 60D#207CCFA670801808
(1782308584.257827) can1 60D#007D0FA67080190B
(1782308584.330609) can1 60A#03FC8310
(1782308584.330834) can1 60B#384F04028020019C
(1782308584.331030) can1 60B#204FEC00802001B4
(1782308584.331267) can1 60B#0050E3FD802001B7
(1782308584.331524) can1 60C#3884A33A0220E8
(1782308584.331802) can1 60C#2084633A0220E8
(1782308584.332028) can1 60C#0084A33A0220E8
(1782308584.332406) can1 60D#387CEFA070801205
(1782308584.332593) can1 60D#207CCFA670801808
(1782308584.332897) can1 60D#007D0FA67080190B
(1782308584.400610) can1 60A#03FC8510
(1782308584.400821) can1 60B#384F04028020019C
(1782308584.401028) can1 60B#204FEC00802001B4
(1782308584.401305) can1 60B#0050E3FD802001B7
(1782308584.401573) can1 60C#3884A33A0220E8
(1782308584.401879) can1 60C#2084633A0220E8
(1782308584.402027) can1 60C#0084A33A0220E8
(1782308584.402320) can1 60D#387CEFA070801205
(1782308584.402579) can1 60D#207CCFA670801808
(1782308584.402820) can1 60D#007D0FA67080190B
(1782308584.475631) can1 60A#03FC8710
(1782308584.475833) can1 60B#384F04028020019C
(1782308584.476028) can1 60B#204FEC00802001B4
(1782308584.476428) can1 60B#0050E3FD802001B7
(1782308584.476621) can1 60C#3884A33A0220E8
(1782308584.476823) can1 60C#2084633A0220E8
(1782308584.477027) can1 60C#0084A33A0220E8
(1782308584.477329) can1 60D#387CEFA070801205
(1782308584.477605) can1 60D#207CCFA670801808
(1782308584.477873) can1 60D#007D0FA67080190B
(1782308584.550647) can1 60A#03FC8910
(1782308584.550863) can1 60B#384F04028020019C
(1782308584.551132) can1 60B#204FEC00802001B4
(1782308584.551434) can1 60B#0050E3FD802001B7
(1782308584.551629) can1 60C#3884A33A0220E8
(1782308584.551903) can1 60C#2084633A0220E8
(1782308584.552130) can1 60C#0084A33A0220E8
(1782308584.552409) can1 60D#387CEFA070801205
(1782308584.552666) can1 60D#207CCFA670801808
(1782308584.552872) can1 60D#007D0FA67080190B
(1782308584.620610) can1 60A#03FC8B10
(1782308584.620938) can1 60B#384F04028020019C
(1782308584.621028) can1 60B#204FEC00802001B4
(1782308584.621475) can1 60B#0050E3FD802001B7
(1782308584.621665) can1 60C#3884A33A0220E8
(1782308584.621933) can1 60C#2084633A0220E8
(1782308584.622027) can1 60C#0084A33A0220E8
(1782308584.622487) can1 60D#387CEFA070801205
(1782308584.622697) can1 60D#207CCFA670801808
(1782308584.622947) can1 60D#007D0FA67080190B
(1782308584.695727) can1 60A#03FC8D10
(1782308584.695894) can1 60B#384F04028020019C
(1782308584.696210) can1 60B#204FEC00802001B4
(1782308584.696451) can1 60B#0050E3FD802001B7
(1782308584.696655) can1 60C#3884A33A0220E8
(1782308584.696909) can1 60C#2084633A0220E8
(1782308584.697120) can1 60C#0084A33A0220E8
(1782308584.697511) can1 60D#387CEFA070801205
(1782308584.697711) can1 60D#207CCFA670801808
(1782308584.697978) can1 60D#007D0FA67080190B
(1782308584.735838) can1 201#4019000010F40000
(1782308584.736028) can1 700#041E0200
(1782308584.770692) can1 60A#03FC8F10
(1782308584.770903) can1 60B#384F04028020019C
(1782308584.771172) can1 60B#204FEC00802001B4
(1782308584.771536) can1 60B#0050E3FD802001B7
(1782308584.771689) can1 60C#3884A33A0220E8
(1782308584.771986) can1 60C#2084633A0220E8
(1782308584.772200) can1 60C#0084A33A0220E8
(1782308584.772515) can1 60D#387CEFA070801205
(1782308584.772745) can1 60D#207CCFA17080180C
(1782308584.772948) can1 60D#007D0FA67080190B
(1782308584.845772) can1 60A#03FC9110
(1782308584.845959) can1 60B#384F04028020019C
(1782308584.846214) can1 60B#204FEC00802001B4
(1782308584.846458) can1 60B#0050E3FD802001B7
(1782308584.846708) can1 60C#3884A33A0220E8
(1782308584.846958) can1 60C#2084633A0220E8
(1782308584.847260) can1 60C#0084A33A0220E8
(1782308584.847490) can1 60D#387CEFA070801205
(1782308584.847799) can1 60D#207CCFA17080170C
(1782308584.847991) can1 60D#007D0FA67080190B
(1782308584.920777) can1 60A#03FC9310
(1782308584.920987) can1 60B#384F04028020019C
(1782308584.921266) can1 60B#204FEC00802001B4
(1782308584.921550) can1 60B#0050E3FD802001B7
(1782308584.921806) can1 60C#3884A33A0220E8
(1782308584.921946) can1 60C#2084633A0220E8
(1782308584.922307) can1 60C#0084A33A0220E8
(1782308584.922509) can1 60D#387CEFA070801205
(1782308584.922899) can1 60D#207CCFA17080170C
(1782308584.923003) can1 60D#007D0FA67080190B
(1782308584.990803) can1 60A#03FC9510
(1782308584.991008) can1 60B#384F04028020019C
(1782308584.991332) can1 60B#204FEC00802001B4
(1782308584.991512) can1 60B#0050E3FD802001B7
(1782308584.991802) can1 60C#3884A33A0220E8
(1782308584.991994) can1 60C#2084633A0220E8
(1782308584.992249) can1 60C#0084A33A0220E8
(1782308584.992520) can1 60D#387CEFA070801205
(1782308584.992802) can1 60D#207CCFA17080170C
(1782308584.993154) can1 60D#007D0FA67080190B
(1782308585.065901) can1 60A#03FC9710
(1782308585.066007) can1 60B#384F04028020019C
(1782308585.066350) can1 60B#204FEC00802001B4
(1782308585.066563) can1 60B#0050E3FD802001B7
(1782308585.066802) can1 60C#3884A33A0220E8
(1782308585.067023) can1 60C#2084633A0220E8
(1782308585.067274) can1 60C#0084A33A0220E8
(1782308585.067559) can1 60D#387CEFA070801205
(1782308585.067886) can1 60D#207CCFA17080170C
(1782308585.068028) can1 60D#007D0FA67080190B
(1782308585.140904) can1 60A#03FC9910
(1782308585.141017) can1 60B#384F04028020019C
(1782308585.141316) can1 60B#204FEC00802001B4
(1782308585.141613) can1 60B#0050E3FD802001B7
(1782308585.141837) can1 60C#3884A33A0220E8
(1782308585.142027) can1 60C#2084633A0220E8
(1782308585.142279) can1 60C#0084A33A0220E8
(1782308585.142554) can1 60D#387D0FA070801205
(1782308585.142819) can1 60D#207CCFA17080170C
(1782308585.143029) can1 60D#007D0FA67080190B
(1782308585.210903) can1 60A#03FC9B10
(1782308585.211030) can1 60B#384F04028020019C
(1782308585.211405) can1 60B#204FEC00802001B4
(1782308585.211620) can1 60B#0050E3FD802001B7
(1782308585.211888) can1 60C#3884A33A0220E8
(1782308585.212029) can1 60C#2084633A0220E8
(1782308585.212425) can1 60C#0084A33A0220E8
(1782308585.212607) can1 60D#387D0FA070801205
(1782308585.212937) can1 60D#207CCFA17080170C
(1782308585.213027) can1 60D#007D0FA67080190B
(1782308585.285901) can1 60A#04FC9D10
(1782308585.286029) can1 60B#1B4E73F98020016C
(1782308585.286432) can1 60B#384F04028020019C
(1782308585.286621) can1 60B#204FEC00802001B4
(1782308585.286932) can1 60B#0050E3FD802001B7
(1782308585.287136) can1 60C#1BA5278D822064
(1782308585.287431) can1 60C#3884A33A0220E8
(1782308585.287660) can1 60C#2084633A0220E8
(1782308585.287847) can1 60C#0084A33A0220E8
(1782308585.288027) can1 60D#1B7D0FA070800505
(1782308585.288376) can1 60D#387D0FA070801205
(1782308585.288646) can1 60D#207CCFA17080170C
(1782308585.288920) can1 60D#007D0FA67080190B
(1782308585.360952) can1 60A#04FC9F10
(1782308585.361027) can1 60B#1B4E73F98060016C
(1782308585.361450) can1 60B#384F04028020019C
(1782308585.361657) can1 60B#204FEC00802001B4
(1782308585.361939) can1 60B#0050E3FD802001B7
(1782308585.362027) can1 60C#1BA5278D0220A8
(1782308585.362474) can1 60C#3884A33A0220E8
(1782308585.362697) can1 60C#2084633A0220E8
(1782308585.362905) can1 60C#0084A33A0220E8
(1782308585.363027) can1 60D#1B8B8FA070800505
(1782308585.363470) can1 60D#387D0FA070801205
(1782308585.363688) can1 60D#207CEFA17080170C
(1782308585.363927) can1 60D#007D0FA67080190B
(1782308585.435951) can1 60A#04FCA110
(1782308585.436139) can1 60B#1B4E73F980A00166
(1782308585.436474) can1 60B#384F04028020019C
(1782308585.436665) can1 60B#204FEC00802001B4
(1782308585.436984) can1 60B#0050E3FD802001B7
(1782308585.437123) can1 60C#1B9D297C8220A8
(1782308585.437511) can1 60C#3884A33A0220E8
(1782308585.437691) can1 60C#2084633A0220E8
(1782308585.437966) can1 60C#0084A33A0220E8
(1782308585.438143) can1 60D#1B9F0FA070800505
(1782308585.438436) can1 60D#387D0FA070801205
(1782308585.438712) can1 60D#207D0FA17080180C
(1782308585.439028) can1 60D#007D0FA67080190B
(1782308585.505976) can1 60A#04FCA310
(1782308585.506167) can1 60B#1B4E73F980E02167
(1782308585.506395) can1 60B#384F04028020019C
(1782308585.506783) can1 60B#204FEC00802001B4
(1782308585.506965) can1 60B#0050E3FD802001B7
(1782308585.507188) can1 60C#1B9D2B7C8220A8
(1782308585.507531) can1 60C#3884A33A0220E8
(1782308585.507696) can1 60C#2084633A0220E8
(1782308585.507978) can1 60C#0084A33A0220E8
(1782308585.508225) can1 60D#1BA4AFA070800505
(1782308585.508547) can1 60D#387D0FA070801205
(1782308585.508896) can1 60D#207D4FA17080180C
(1782308585.509000) can1 60D#007D0FA67080190B
(1782308585.580995) can1 60A#04FCA510
(1782308585.581181) can1 60B#1B4E73F981200166
(1782308585.581500) can1 60B#384F04028020019C
(1782308585.581732) can1 60B#204FEC00802001B4
(1782308585.581955) can1 60B#0050E3FD802001B7
(1782308585.582208) can1 60C#1B9D2B7C0220A8
(1782308585.582433) can1 60C#3884A33A0220E8
(1782308585.582711) can1 60C#2084633A0220E8
(1782308585.582900) can1 60C#0084A33A0220E8
(1782308585.583227) can1 60D#1BA10FA070800505
(1782308585.583458) can1 60D#387D0FA070801205
(1782308585.583808) can1 60D#207D4FA17080180C
(1782308585.583995) can1 60D#007D0FA67080190B
(1782308585.656023) can1 60A#04FCA710
(1782308585.656236) can1 60B#1B4E7BF981202165
(1782308585.656509) can1 60B#384F04028020019C
(1782308585.656813) can1 60B#204FEC00802001B4
(1782308585.656973) can1 60B#0050E3FD802001B7
(1782308585.657269) can1 60C#1B9D2B6B8220A8
(1782308585.657491) can1 60C#3884A33A0220E8
(1782308585.657716) can1 60C#2084633A0220E8
(1782308585.657950) can1 60C#0084A33A0220E8
(1782308585.658249) can1 60D#1B9DEFA070800505
(1782308585.658521) can1 60D#387D0FA070801205
(1782308585.658794) can1 60D#207D8FA17080190C
(1782308585.659145) can1 60D#007D0FA67080190B
(1782308585.730964) can1 60A#04FCA910
(1782308585.731250) can1 60B#1B4E7BF981602162
(1782308585.731455) can1 60B#384F04028020019C
(1782308585.731801) can1 60B#204FE400802001B4
(1782308585.731976) can1 60B#0050E3FD802001B7
(1782308585.732256) can1 60C#1B9D2B6B8220A8
(1782308585.732483) can1 60C#3884A33A0220E8
(1782308585.732796) can1 60C#2084633A0220E8
(1782308585.732964) can1 60C#0084A33A0220E8
(1782308585.733251) can1 60D#1BA0AFA070800505
(1782308585.733518) can1 60D#387D0FA070801205
(1782308585.733799) can1 60D#207DCFA17080190C
(1782308585.734028) can1 60D#007D0FA67080190B
(1782308585.736028) can1 201#4019000010F40000
(1782308585.736400) can1 700#041E0200
(1782308585.801029) can1 60A#04FCAB10
(1782308585.801259) can1 60B#1B4E83F981E02162
(1782308585.801567) can1 60B#384F04028020019C
(1782308585.801889) can1 60B#204FE400802001B4
(1782308585.802028) can1 60B#0050E3FD802001B7
(1782308585.802364) can1 60C#1B9D2B6B8220A8
(1782308585.802570) can1 60C#3884A33A0220E8
(1782308585.802877) can1 60C#2084633A0220E8
(1782308585.802992) can1 60C#0084A33A0220E8
(1782308585.803375) can1 60D#1BA34FA070800505
(1782308585.803579) can1 60D#387D0FA070801205
(1782308585.803871) can1 60D#207E0FA17080190C
(1782308585.804027) can1 60D#007D0FA67080190B
(1782308585.876028) can1 60A#04FCAD10
(1782308585.876254) can1 60B#1B4E83F981E02163
(1782308585.876549) can1 60B#384F04028020019C
(1782308585.876802) can1 60B#204FE400802001B4
(1782308585.877027) can1 60B#0050E3FD802001B7
(1782308585.877298) can1 60C#1B9D2B6B8220A8
(1782308585.877641) can1 60C#3884A33A0220E8
(1782308585.877832) can1 60C#2084633A0220E8
(1782308585.878027) can1 60C#0084A33A0220E8
(1782308585.878325) can1 60D#1BA16FA070800505
(1782308585.878574) can1 60D#387D0FA070801205
(1782308585.878851) can1 60D#207E4FA17080190C
(1782308585.879027) can1 60D#007D0FA67080190B
(1782308585.951130) can1 60A#04FCAF10
(1782308585.951322) can1 60B#1B4E8BF981E02166
(1782308585.951608) can1 60B#384F04028020019C
(1782308585.951843) can1 60B#204FE400802001B4
(1782308585.952028) can1 60B#0050E3FD802001B7
(1782308585.952330) can1 60C#1B9D2B6C0220A8
(1782308585.952619) can1 60C#3884A33A0220E8
(1782308585.952831) can1 60C#2084633A0220E8
(1782308585.953154) can1 60C#0084A33A0220E8
(1782308585.953328) can1 60D#1B9B4FA070800505
(1782308585.953594) can1 60D#387D0FA070801205
(1782308585.953884) can1 60D#207E8FA17080190C
(1782308585.954141) can1 60D#007D0FA67080190B
(1782308586.026154) can1 60A#04FCB110
(1782308586.026348) can1 60B#1B4E8BF981202069
(1782308586.026644) can1 60B#384F04028020019C
(1782308586.026905) can1 60B#204FE400802001B4
(1782308586.027028) can1 60B#0050E3FD802001B7
(1782308586.027355) can1 60C#1B9D275C0220C8
(1782308586.027699) can1 60C#3884A33A0220E8
(1782308586.027889) can1 60C#2084633A0220E8
(1782308586.028027) can1 60C#0084A33A0220E8
(1782308586.028485) can1 60D#1B828FA070800101
(1782308586.028650) can1 60D#387D0FA070801205
(1782308586.029003) can1 60D#207EAFA17080190C
(1782308586.029204) can1 60D#007D0FA67080190B
(1782308586.101180) can1 60A#05FCB310
(1782308586.101373) can1 60B#1B4E93FA8120206A
(1782308586.101663) can1 60B#384F04028020019C
(1782308586.101874) can1 60B#164F8BF980200187
(1782308586.102131) can1 60B#204FE400802001B4
(1782308586.102475) can1 60B#0050E3FD802001B7
(1782308586.102670) can1 60C#1B94E95C8220C8
(1782308586.102923) can1 60C#3884A33A0220E8
(1782308586.103028) can1 60C#16A5278D822064
(1782308586.103470) can1 60C#2084633A0220E8
(1782308586.103665) can1 60C#0084A33A0220E8
(1782308586.103929) can1 60D#1B820FA070800201
(1782308586.104126) can1 60D#387D0FA070801205
(1782308586.104409) can1 60D#167D0FA070800505
(1782308586.104693) can1 60D#207EAFA17080190C
(1782308586.104954) can1 60D#007D0FA67080190B
(1782308586.176122) can1 60A#05FCB510
(1782308586.176432) can1 60B#1B4E9BFA81602067
(1782308586.176680) can1 60B#384F04028020019C
(1782308586.176921) can1 60B#164F93F8801FE181
(1782308586.177120) can1 60B#204FE400802001B4
(1782308586.177504) can1 60B#0050E3FD802001B7
(1782308586.177693) can1 60C#1B94EB4C8220C8
(1782308586.177947) can1 60C#3884A33A0220E8
(1782308586.178119) can1 60C#169CE78C8220C8
(1782308586.178501) can1 60C#2084633A0220E8
(1782308586.178693) can1 60C#0084A33A0220E8
(1782308586.179012) can1 60D#1B88EFA070800201
(1782308586.179204) can1 60D#387D0FA070801205
(1782308586.179558) can1 60D#16804FA070800505
(1782308586.179717) can1 60D#207EAFA17080190C
(1782308586.180028) can1 60D#007D0FA67080190B
(1782308586.246228) can1 60A#05FCB710
(1782308586.246410) can1 60B#1B4E9BFA81602065
(1782308586.246752) can1 60B#384F04028020019C
(1782308586.246902) can1 60B#164F93F8801FE181
(1782308586.247200) can1 60B#204FE400802001B4
(1782308586.247509) can1 60B#0050E3FD802001B7
(1782308586.247716) can1 60C#1B94EB4C0220C8
(1782308586.247990) can1 60C#3884A33A0220E8
(1782308586.248191) can1 60C#169D2B8C8220CC
(1782308586.248403) can1 60C#2084633A0220E8
(1782308586.248681) can1 60C#0084A33A0220E8
(1782308586.248953) can1 60D#1B850FA070800201
(1782308586.249248) can1 60D#387D0FA070801205
(1782308586.249566) can1 60D#16804FA070800505
(1782308586.249802) can1 60D#207E8FA17080190C
(1782308586.249970) can1 60D#007D0FA67080190B
(1782308586.321178) can1 60A#05FCB910
(1782308586.321489) can1 60B#1B4EA3FA81604065
(1782308586.321709) can1 60B#384F04028020019C
(1782308586.321979) can1 60B#164F93F8801FC17A
(1782308586.322205) can1 60B#204FE400802001B4
(1782308586.322452) can1 60B#0050E3FD802001B7
(1782308586.322698) can1 60C#1B94EB4C0220A8
(1782308586.322959) can1 60C#3884A33A0220E8
(1782308586.323271) can1 60C#169D2D7C8220A8
(1782308586.323460) can1 60C#2084633A0220E8
(1782308586.323683) can1 60C#0084A33A0220E8
(1782308586.323950) can1 60D#1B816FA070800201
(1782308586.324225) can1 60D#387D0FA070801205
(1782308586.324498) can1 60D#167E2FA070800505
(1782308586.324904) can1 60D#207E4FA17080190C
(1782308586.325008) can1 60D#007D0FA67080190B
(1782308586.396257) can1 60A#05FCBB10
(1782308586.396431) can1 60B#1B4EA3FB81604066
(1782308586.396706) can1 60B#384F04028020019C
(1782308586.397028) can1 60B#164F93F7801FC17A
(1782308586.397212) can1 60B#204FE400802001B4
(1782308586.397482) can1 60B#0050E3FD802001B7
(1782308586.397802) can1 60C#1B9CEB4C0220A8
(1782308586.397975) can1 60C#3884A33A0220E8
(1782308586.398276) can1 60C#16A56F7C8220AC
(1782308586.398481) can1 60C#2084633A0220E8
(1782308586.398802) can1 60C#0084A33A0220E8
(1782308586.399001) can1 60D#1B810FA070800201
(1782308586.399279) can1 60D#387D0FA070801205
(1782308586.399525) can1 60D#167E2FA070800505
(1782308586.399898) can1 60D#207E0FA17080190C
(1782308586.400027) can1 60D#007D0FA67080190B
(1782308586.466278) can1 60A#05FCBD10
(1782308586.466484) can1 60B#1B4EABFB81204068
(1782308586.466906) can1 60B#384F04028020019C
(1782308586.467010) can1 60B#164F93F7801FC17A
(1782308586.467306) can1 60B#204FE400802001B4
(1782308586.467521) can1 60B#0050E3FD802001B7
(1782308586.467807) can1 60C#1B9CEB4B8220A8
(1782308586.467995) can1 60C#3884A33A0220E8
(1782308586.468246) can1 60C#16A56F7C8220AC
(1782308586.468495) can1 60C#2084633A0220E8
(1782308586.468798) can1 60C#0084A33A0220E8
(1782308586.469024) can1 60D#1B774FA070800201
(1782308586.469326) can1 60D#387D0FA070801205
(1782308586.469630) can1 60D#167E2FA070800505
(1782308586.469848) can1 60D#207DCFA17080190C
(1782308586.470027) can1 60D#007D0FA67080190B
(1782308586.541263) can1 60A#05FCBF10
(1782308586.541534) can1 60B#1B4EABFB81204068
(1782308586.541906) can1 60B#384F04028020019B
(1782308586.542010) can1 60B#164F93F7801FC17A
(1782308586.542289) can1 60B#204FE400802001B4
(1782308586.542532) can1 60B#0050E3FD802001B7
(1782308586.542895) can1 60C#1B9CAB4B8220A8
(1782308586.543026) can1 60C#3884A33A0220E8
(1782308586.543359) can1 60C#16ADAF7C8220AC
(1782308586.543580) can1 60C#2084633A0220E8
(1782308586.543817) can1 60C#0084A33A0220E8
(1782308586.544028) can1 60D#1B76AFA070800201
(1782308586.544390) can1 60D#387D0FA070801205
(1782308586.544601) can1 60D#167E2FA070800505
(1782308586.544899) can1 60D#207D6FA17080190C
(1782308586.545027) can1 60D#007D0FA67080190B
(1782308586.616263) can1 60A#05FCC110
(1782308586.616601) can1 60B#1B4EABFC80E04169
(1782308586.616845) can1 60B#384F04028020019B
(1782308586.617030) can1 60B#164F93F7801FC17A
(1782308586.617311) can1 60B#204FE400802001B4
(1782308586.617556) can1 60B#0050E3FD802001B7
(1782308586.617801) can1 60C#1B94AB4B8220C8
(1782308586.618153) can1 60C#3884A33A0220E8
(1782308586.618339) can1 60C#16ADB17C8220AC
(1782308586.618617) can1 60C#2084633A0220E8
(1782308586.618799) can1 60C#0084A33A0220E8
(1782308586.619027) can1 60D#1B752FA070800505
(1782308586.619328) can1 60D#387D0FA070801205
(1782308586.619605) can1 60D#167E2FA070800505
(1782308586.619973) can1 60D#207D4FA67080190A
(1782308586.620027) can1 60D#007D0FA67080190B
(1782308586.691320) can1 60A#05FCC310
(1782308586.691588) can1 60B#1B4EB3FD80E0616A
(1782308586.691865) can1 60B#384F04028020019B
(1782308586.692028) can1 60B#164F93F7801FC17A
(1782308586.692308) can1 60B#204FE400802001B4
(1782308586.692643) can1 60B#0050E3FD802001B6
(1782308586.692847) can1 60C#1B94A93B0220C8
(1782308586.693028) can1 60C#3884A33A0220E8
(1782308586.693329) can1 60C#16B5B17C82208C
(1782308586.693588) can1 60C#2084633A0220E8
(1782308586.693803) can1 60C#0084633A0220E8
(1782308586.694028) can1 60D#1B738FA070800505
(1782308586.694430) can1 60D#387D0FA070801205
(1782308586.694633) can1 60D#167E2FA070800505
(1782308586.694965) can1 60D#207D0FA670801909
(1782308586.695036) can1 60D#007D0FA67080190B
(1782308586.736562) can1 201#4019000010F40000
(1782308586.736666) can1 700#041E0200
(1782308586.761301) can1 60A#05FCC510
(1782308586.761652) can1 60B#1B4EB3FD80A0616B
(1782308586.761857) can1 60B#384F04028020019B
(1782308586.762140) can1 60B#164F93F6801FC17A
(1782308586.762382) can1 60B#204FE400802001B4
(1782308586.762599) can1 60B#0050E3FD802001B5
(1782308586.762852) can1 60C#1B94A93B0220C8
(1782308586.763177) can1 60C#3884A33A0220E8
(1782308586.763377) can1 60C#16B5F17C82208C
(1782308586.763604) can1 60C#2084633A0220E8
(1782308586.763848) can1 60C#0084633A0220E8
(1782308586.764028) can1 60D#1B714FA070800505
(1782308586.764455) can1 60D#387D0FA070801205
(1782308586.764662) can1 60D#167E2FA070800505
(1782308586.764982) can1 60D#207D0FA670801909
(1782308586.765171) can1 60D#007D0FA67080190B
(1782308586.836409) can1 60A#05FCC710
(1782308586.836611) can1 60B#1B4EB3FE80A0616C
(1782308586.836893) can1 60B#384F04028020019B
(1782308586.837027) can1 60B#164F93F6801FC17A
(1782308586.837397) can1 60B#204FE400802001B4
(1782308586.837719) can1 60B#0050E3FD802001B6
(1782308586.837883) can1 60C#1B94A93B0220E8
(1782308586.838027) can1 60C#3884A33A0220E8
(1782308586.838477) can1 60C#16B5F37C82206C
(1782308586.838667) can1 60C#2084633A0220E8
(1782308586.838923) can1 60C#0084A33A0220E8
(1782308586.839120) can1 60D#1B700FA070800505
(1782308586.839506) can1 60D#387D4FA070801205
(1782308586.839703) can1 60D#167E2FA070800505
(1782308586.839981) can1 60D#207CEFA670801909
(1782308586.840202) can1 60D#007D0FA67080190B
(1782308586.911455) can1 60A#05FCC910
(1782308586.911648) can1 60B#1B4EB3FE80A0616D
(1782308586.911941) can1 60B#384F04028020019B
(1782308586.912130) can1 60B#164F93F6801FC183
(1782308586.912422) can1 60B#204FE400802001B4
(1782308586.912627) can1 60B#0050E3FD802001B7
(1782308586.912870) can1 60C#1B94A93B0220E8
(1782308586.913120) can1 60C#3884A33A0220E8
(1782308586.913504) can1 60C#16B5F17C822068
(1782308586.913665) can1 60C#2084633A0220E8
(1782308586.913885) can1 60C#0084A33A0220E8
(1782308586.914155) can1 60D#1B6FCFA070800505
(1782308586.914533) can1 60D#387D6FA070801205
(1782308586.914723) can1 60D#167DAFA070800505
(1782308586.914954) can1 60D#207CEFA670801908
(1782308586.915255) can1 60D#007D0FA67080190B
(1782308586.981381) can1 60A#05FCCB10
(1782308586.981721) can1 60B#1B4EB3FE8060616E
(1782308586.981912) can1 60B#384F04028020019B
(1782308586.982252) can1 60B#164F9BF6801FC18A
(1782308586.982412) can1 60B#204FE400802001B4
(1782308586.982734) can1 60B#0050E3FD802001B8
(1782308586.982933) can1 60C#1B94A93B0220E8
(1782308586.983126) can1 60C#3884A33A0220E8
(1782308586.983482) can1 60C#16B5B17C022088
(1782308586.983630) can1 60C#2084633A0220E8
(1782308586.983970) can1 60C#0084A33A0220E8
(1782308586.984210) can1 60D#1B6EEFA070800505
(1782308586.984475) can1 60D#387D6FA070801205
(1782308586.984757) can1 60D#167D0FA070800505
(1782308586.984925) can1 60D#207CCFA670801908
(1782308586.985201) can1 60D#007D0FA67080190B
(1782308587.056479) can1 60A#05FCCD10
(1782308587.056657) can1 60B#1B4EB3FE80606170
(1782308587.056971) can1 60B#384F04028020019B
(1782308587.057186) can1 60B#164F9BF7801FE18F
(1782308587.057502) can1 60B#204FE400802001B4
(1782308587.057685) can1 60B#0050E3FD802001B8
(1782308587.058023) can1 60C#1B8CA53A8220E8
(1782308587.058193) can1 60C#3884A33A0220E8
(1782308587.058504) can1 60C#16AD6F6B8220A8
(1782308587.058689) can1 60C#2084633A0220E8
(1782308587.058925) can1 60C#0084A33A0220E8
(1782308587.059271) can1 60D#1B6E0FA070800505
(1782308587.059512) can1 60D#387D6FA070801205
(1782308587.059871) can1 60D#167CAFA070800505
(1782308587.059974) can1 60D#207CAFA670801908
(1782308587.060249) can1 60D#007D0FA67080190B
(1782308587.131393) can1 60A#05FCCF10
(1782308587.131745) can1 60B#1B4EB3FF80206174
(1782308587.131981) can1 60B#384F04028020019B
(1782308587.132255) can1 60B#164F9BF7801FE18F
(1782308587.132529) can1 60B#204FE401802001B6
(1782308587.132869) can1 60B#0050E3FD802001B5
(1782308587.132971) can1 60C#1B8CA53A8220E8
(1782308587.133294) can1 60C#3884A33A0220E8
(1782308587.133487) can1 60C#16B56F6B82208C
(1782308587.133677) can1 60C#2084633A0220E8
(1782308587.133925) can1 60C#0084A33A0220E8
(1782308587.134278) can1 60D#1B6C8FA070800505
(1782308587.134544) can1 60D#387D4FA070801205
(1782308587.134871) can1 60D#167CAFA070800505
(1782308587.134997) can1 60D#207C8FA670801908
(1782308587.135390) can1 60D#007D2FA67080190B
(1782308587.201574) can1 60A#05FCD110
(1782308587.201850) can1 60B#1B4EB3FF7FE06174
(1782308587.201972) can1 60B#384F04028020019C
(1782308587.202351) can1 60B#164F9BF7801FE18F
(1782308587.202587) can1 60B#204FE401802001B5
(1782308587.202842) can1 60B#0050E3FE802021B1
(1782308587.203021) can1 60C#1B8CA33A8220E8
(1782308587.203380) can1 60C#3884A33A0220E8
(1782308587.203586) can1 60C#16B5AF6B82208C
(1782308587.203829) can1 60C#2084633A0220E8
(1782308587.204014) can1 60C#0084A33A0220E8
(1782308587.204371) can1 60D#1B6A0FA070800505
(1782308587.204611) can1 60D#387D4FA070801205
(1782308587.204917) can1 60D#167CAFA070800505
(1782308587.205029) can1 60D#207C6FA670801908
(1782308587.205348) can1 60D#007D2FA67080190B
(1782308587.276553) can1 60A#05FCD310
(1782308587.276870) can1 60B#1B4EB3FF7FE06172
(1782308587.276974) can1 60B#384F04028020019C
(1782308587.277327) can1 60B#164F9BF6801FE18F
(1782308587.277509) can1 60B#204FE401802001B5
(1782308587.277895) can1 60B#0050E3FE802021AE
(1782308587.277998) can1 60C#1B8C633A0220E8
(1782308587.278352) can1 60C#3884A33A0220E8
(1782308587.278524) can1 60C#16B5AF6B82206C
(1782308587.278865) can1 60C#2084633A0220E8
(1782308587.278997) can1 60C#0084633A0220E8
(1782308587.279358) can1 60D#1B698FA070800505
(1782308587.279557) can1 60D#387D2FA070801205
(1782308587.279794) can1 60D#167CAFA070800505
(1782308587.280029) can1 60D#207C6FA670801908
(1782308587.280425) can1 60D#007D2FA67080190B
(1782308587.351573) can1 60A#05FCD510
(1782308587.351855) can1 60B#1B4EB3FF7FE06175
(1782308587.351997) can1 60B#384F04028020019B
(1782308587.352351) can1 60B#164F93F88020018C
(1782308587.352566) can1 60B#204FE401802001B4
(1782308587.352872) can1 60B#0050E3FF802021AC
(1782308587.353022) can1 60C#1B8C633A0220E8
(1782308587.353378) can1 60C#3884A33A0220E8
(1782308587.353550) can1 60C#16AD6D5B022088
(1782308587.353867) can1 60C#2084633A0220E8
(1782308587.353996) can1 60C#0084633A0220E8
(1782308587.354438) can1 60D#1B6A6FA070800505
(1782308587.354604) can1 60D#387D2FA070801205
(1782308587.354870) can1 60D#167CEFA070800505
(1782308587.355123) can1 60D#207C6FA670801907
(1782308587.355338) can1 60D#007D2FA67080190B
(1782308587.426597) can1 60A#06FCD710
(1782308587.426821) can1 60B#1B4EABFF7FA06176
(1782308587.427029) can1 60B#384F04028020019C
(1782308587.427272) can1 60B#164F93F880200184
(1782308587.427652) can1 60B#204FE401802001B2
(1782308587.427838) can1 60B#15505BF7802001A1
(1782308587.428030) can1 60B#0050E3FF802041A9
(1782308587.428406) can1 60C#1B8C633A8220E8
(1782308587.428578) can1 60C#3884A33A0220E8
(1782308587.428917) can1 60C#16AD6D5B022068
(1782308587.429028) can1 60C#2084613A0220E8
(1782308587.429418) can1 60C#15A5278D822064
(1782308587.429587) can1 60C#0084633A0220E8
(1782308587.429921) can1 60D#1B6B0FA070800505
(1782308587.430028) can1 60D#387D0FA070801205
(1782308587.430451) can1 60D#167CEFA070800505
(1782308587.430684) can1 60D#207C6FA670801907
(1782308587.430908) can1 60D#157D0FA070800505
(1782308587.431197) can1 60D#007D2FA67080190B
(1782308587.501621) can1 60A#06FCD910
(1782308587.501797) can1 60B#1B4EABFF7FA06172
(1782308587.502021) can1 60B#384F04028020019C
(1782308587.502401) can1 60B#164F93F880200184
(1782308587.502611) can1 60B#204FE401802001B1
(1782308587.502842) can1 60B#15505BF78020019E
(1782308587.503029) can1 60B#0050E3FF802041A8
(1782308587.503424) can1 60C#1B8C653A8220E8
(1782308587.503604) can1 60C#3884A33A0220E8
(1782308587.503918) can1 60C#16AD6D5B02204C
(1782308587.504029) can1 60C#2084633A0220E8
(1782308587.504452) can1 60C#159CE78C8220A8
(1782308587.504555) can1 60C#0084633A0220E8
(1782308587.504916) can1 60D#1B6B8FA070800505
(1782308587.505028) can1 60D#387D0FA070801205
(1782308587.505452) can1 60D#167CEFA070800505
(1782308587.505673) can1 60D#207C6FA670801907
(1782308587.505972) can1 60D#157CAFA070800505
(1782308587.506206) can1 60D#007D2FA67080190B
(1782308587.571664) can1 60A#06FCDB10
(1782308587.571821) can1 60B#1B4EA4007F604173
(1782308587.572143) can1 60B#384F04028020019B
(1782308587.572380) can1 60B#164F93F880200184
(1782308587.572648) can1 60B#204FE401802001B1
(1782308587.572918) can1 60B#15505BF78020019D
(1782308587.573028) can1 60B#0050E400802041A6
(1782308587.573350) can1 60C#1B8C653A8220E8
(1782308587.573590) can1 60C#3884A33A0220E8
(1782308587.573938) can1 60C#16B56D5B02202C
(1782308587.574028) can1 60C#2084633A0220E8
(1782308587.574466) can1 60C#159CE77C0220E8
(1782308587.574644) can1 60C#0084633A0220E8
(1782308587.574931) can1 60D#1B6B4FA070800505
(1782308587.575131) can1 60D#387D0FA070801205
(1782308587.575370) can1 60D#167CEFA070800505
(1782308587.575646) can1 60D#207C6FA670801907
(1782308587.575894) can1 60D#157CAFA070800505
(1782308587.576243) can1 60D#007D0FA67080190B
(1782308587.646669) can1 60A#06FCDD10
(1782308587.646852) can1 60B#1B4EA4007F604173
(1782308587.647029) can1 60B#384F04028020019B
(1782308587.647347) can1 60B#204FE401802021AF
(1782308587.647697) can1 60B#15505BF78020019D
(1782308587.647907) can1 60B#0050E401802061A5
(1782308587.648126) can1 60B#525103F480200183
(1782308587.648380) can1 60C#1B8C673A8220E8
(1782308587.648721) can1 60C#3884A33A0220E8
(1782308587.648901) can1 60C#2084633A0220E8
(1782308587.649128) can1 60C#159CE57B8220E8
(1782308587.649479) can1 60C#0084633A0220E8
(1782308587.649660) can1 60C#52A5278D822064
(1782308587.649896) can1 60D#1B6A8FA070800505
(1782308587.650192) can1 60D#387D0FA070801205
(1782308587.650527) can1 60D#207C6FA670801907
(1782308587.650704) can1 60D#157DEFA070800505
(1782308587.650946) can1 60D#007D0FA67080190B
(1782308587.651196) can1 60D#527D0FA070800505
(1782308587.721696) can1 60A#06FCDF10
(1782308587.721884) can1 60B#1B4E9C007F204173
(1782308587.722028) can1 60B#384F04028020019C
(1782308587.722477) can1 60B#204FE401802021AE
(1782308587.722662) can1 60B#15505BF78020019C
(1782308587.722924) can1 60B#0050E401802061A5
(1782308587.723204) can1 60B#525103F480200183
(1782308587.723407) can1 60C#1B8C673A8220E8
(1782308587.723741) can1 60C#3884A33A0220E8
(1782308587.723899) can1 60C#2084633A0220E8
(1782308587.724192) can1 60C#159CE57B0220E8
(1782308587.724436) can1 60C#0084A33A0220E8
(1782308587.724698) can1 60C#52A52D8D82204C
(1782308587.724899) can1 60D#1B6A0FA070800505
(1782308587.725195) can1 60D#387D0FA070801205
(1782308587.725517) can1 60D#207C6FA670801907
(1782308587.725863) can1 60D#157DEFA070800505
(1782308587.725966) can1 60D#007D0FA67080190B
(1782308587.726323) can1 60D#527D0FA070800505
(1782308587.736879) can1 201#4019000010F40000
(1782308587.736983) can1 700#041E0200
(1782308587.796719) can1 60A#06FCE110
(1782308587.796898) can1 60B#1B4E9BFF7F202172
(1782308587.797126) can1 60B#384F04028020019C
(1782308587.797500) can1 60B#204FE401802021AD
(1782308587.797691) can1 60B#15505BF78020019C
(1782308587.798019) can1 60B#0050E402802061A4
(1782308587.798214) can1 60B#525103F480200183
(1782308587.798470) can1 60C#1B8C673A8220E8
(1782308587.798763) can1 60C#3884A33A0220E8
(1782308587.798944) can1 60C#2084633A0220E8
(1782308587.799229) can1 60C#159D277B0220CC
(1782308587.799423) can1 60C#0084A33A0220E8
(1782308587.799674) can1 60C#52A56F8D82202C
(1782308587.799945) can1 60D#1B6A0FA070800505
(1782308587.800286) can1 60D#387CEFA070801205
(1782308587.800548) can1 60D#207C8FA670801908
(1782308587.800769) can1 60D#157DEFA070800505
(1782308587.800995) can1 60D#007D0FA67080190B
(1782308587.801367) can1 60D#527D0FA070800505
(1782308587.871749) can1 60A#06FCE310
(1782308587.871927) can1 60B#1B4E9BFF7F202173
(1782308587.872197) can1 60B#384F04028020019C
(1782308587.872478) can1 60B#204FE401802021AB
(1782308587.872761) can1 60B#15505BF780202198
(1782308587.872950) can1 60B#0050E402802081A3
(1782308587.873196) can1 60B#52510BF380200180
(1782308587.873447) can1 60C#1B8C673A8220E8
(1782308587.873769) can1 60C#3884A33A0220E8
(1782308587.873973) can1 60C#2084633A0220E8
(1782308587.874173) can1 60C#1595256A8220E8
(1782308587.874424) can1 60C#0084A33A0220E8
(1782308587.874676) can1 60C#52A5278D822064
(1782308587.874926) can1 60D#1B6C6FA070800505
(1782308587.875290) can1 60D#387CEFA070801205
(1782308587.875511) can1 60D#207C8FA670801808
(1782308587.875769) can1 60D#157D4FA070800505
(1782308587.875989) can1 60D#007CEFA67080190B
(1782308587.876362) can1 60D#527D0FA070800505
(1782308587.941768) can1 60A#06FCE510
(1782308587.941945) can1 60B#1B4E9BFF7EE02174
(1782308587.942213) can1 60B#384F04028020019B
(1782308587.942537) can1 60B#204FE401802021AA
(1782308587.942873) can1 60B#155053F78020219A
(1782308587.942977) can1 60B#0050E4028020619C
(1782308587.943322) can1 60B#525103F480202180
(1782308587.943509) can1 60C#1B8C673A8220E8
(1782308587.943808) can1 60C#3884A33A0220E8
(1782308587.943964) can1 60C#2084633A0220E8
(1782308587.944316) can1 60C#1594E55A8220E8
(1782308587.944488) can1 60C#0084A33A0220E8
(1782308587.944762) can1 60C#529CE78C8220A8
(1782308587.944974) can1 60D#1B6DAFA070800505
(1782308587.945342) can1 60D#387CEFA070801205
(1782308587.945505) can1 60D#207CCFA670801808
(1782308587.945862) can1 60D#157D0FA070800505
(1782308587.946021) can1 60D#007CEFA67080190B
(1782308587.946373) can1 60D#527C4FA070800505
(1782308588.016873) can1 60A#07FCE710
(1782308588.016976) can1 60B#1B4E93FF7EE02072
(1782308588.017289) can1 60B#384F04028020019B
(1782308588.017543) can1 60B#044F8BF980200181
(1782308588.017877) can1 60B#204FE402802021A8
(1782308588.017997) can1 60B#155053F78020019B
(1782308588.018356) can1 60B#0050E40380208195
(1782308588.018538) can1 60B#525103F48020217F
(1782308588.018776) can1 60C#1B8C673A8220E8
(1782308588.019014) can1 60C#3884A33A0220E8
(1782308588.019368) can1 60C#04A5278D822064
(1782308588.019539) can1 60C#2084633A0220E8
(1782308588.019870) can1 60C#1594E55A8220E8
(1782308588.019996) can1 60C#0084A33A0220E8
(1782308588.020375) can1 60C#529D297C8220A8
(1782308588.020551) can1 60D#1B6F4FA070800405
(1782308588.020794) can1 60D#387CEFA070801205
(1782308588.021028) can1 60D#047D0FA070800505
(1782308588.021416) can1 60D#207CEFA670801808
(1782308588.021641) can1 60D#157D2FA070800505
(1782308588.021843) can1 60D#007CCFA67080190B
(1782308588.022028) can1 60D#527CCFA070800505
(1782308588.091873) can1 60A#08FCE910
(1782308588.091977) can1 60B#1B4E93FF7EE02072
(1782308588.092231) can1 60B#384F04028020019A
(1782308588.092598) can1 60B#044F8BF980200181
(1782308588.092817) can1 60B#204FE402802021A5
(1782308588.093039) can1 60B#17502BF980200184
(1782308588.093393) can1 60B#155053F78020019C
(1782308588.093539) can1 60B#0050E40380208191
(1782308588.093826) can1 60B#5250FBF480202180
(1782308588.094031) can1 60C#1B8C673A8220E8
(1782308588.094403) can1 60C#3884A33A0220E8
(1782308588.094691) can1 60C#049CE78C8220A8
(1782308588.094879) can1 60C#2084633A0220E8
(1782308588.095131) can1 60C#17A5278D822064
(1782308588.095336) can1 60C#1594E35A0220E8
(1782308588.095574) can1 60C#0084633A0220E8
(1782308588.095794) can1 60C#529D2B7C8220A8
(1782308588.096027) can1 60D#1B6FAFA070800405
(1782308588.096325) can1 60D#387CEFA070801205
(1782308588.096602) can1 60D#047D0FA070800505
(1782308588.096920) can1 60D#207CEFA670801808
(1782308588.097130) can1 60D#177D0FA070800505
(1782308588.097400) can1 60D#157D2FA070800505
(1782308588.097645) can1 60D#007CAFA67080190B
(1782308588.097926) can1 60D#527D2FA070800505
(1782308588.166901) can1 60A#07FCEB10
(1782308588.167029) can1 60B#1B4E8BFF7EE02073
(1782308588.167377) can1 60B#384F04028020019A
(1782308588.167584) can1 60B#044F8BF980200181
(1782308588.167861) can1 60B#204FE402802021A1
(1782308588.168134) can1 60B#17502BF8801FC18B
(1782308588.168334) can1 60B#0050E4038020618C
(1782308588.168581) can1 60B#5250FBF480202180
(1782308588.168848) can1 60C#1B8C673A8220E8
(1782308588.169027) can1 60C#3884A33A0220E8
(1782308588.169353) can1 60C#049CE77C0220E8
(1782308588.169707) can1 60C#2084633A0220E8
(1782308588.169886) can1 60C#179CE78C8220E8
(1782308588.170028) can1 60C#0084A33A0220E8
(1782308588.170437) can1 60C#529D2B7C0220A8
(1782308588.170633) can1 60D#1B6F6FA070800405
(1782308588.170974) can1 60D#387CEFA070801205
(1782308588.171028) can1 60D#047D0FA070800505
(1782308588.171498) can1 60D#207CEFA670801807
(1782308588.171688) can1 60D#177CEFA070800505
(1782308588.171924) can1 60D#007CAFA67080190B
(1782308588.172257) can1 60D#527D4FA070800505
(1782308588.236899) can1 60A#07FCED10
(1782308588.237030) can1 60B#1B4E8BFF7EE02075
(1782308588.237415) can1 60B#384F040280200199
(1782308588.237609) can1 60B#044F8BF980200181
(1782308588.237949) can1 60B#204FE4028020219D
(1782308588.238137) can1 60B#17502BF7801FA190
(1782308588.238407) can1 60B#0050E40280204188
(1782308588.238629) can1 60B#5250FBF480202180
(1782308588.238872) can1 60C#1B8C673A8220E8
(1782308588.239027) can1 60C#3884A33A0220E8
(1782308588.239476) can1 60C#049CE57B8220E8
(1782308588.239634) can1 60C#2084633A0220E8
(1782308588.239968) can1 60C#179CE57C0220E8
(1782308588.240040) can1 60C#0084A33A0220E8
(1782308588.240454) can1 60C#529D2B7C0220A8
(1782308588.240643) can1 60D#1B6F8FA070800405
(1782308588.240896) can1 60D#387D0FA070801205
(1782308588.241118) can1 60D#047D0FA070800505
(1782308588.241528) can1 60D#207CEFA670801807
(1782308588.241717) can1 60D#177D0FA070800505
(1782308588.242028) can1 60D#007CAFA67080190B
(1782308588.242231) can1 60D#527D6FA070800505
(1782308588.311931) can1 60A#07FCEF10
(1782308588.312029) can1 60B#1B4E8BFF7EA02272
(1782308588.312442) can1 60B#384F040280200199
(1782308588.312614) can1 60B#044F8BF980200181
(1782308588.312944) can1 60B#204FE4028020219B
(1782308588.313126) can1 60B#17502BF7801FA194
(1782308588.313484) can1 60B#0050E40280202184
(1782308588.313675) can1 60B#5250FBF480202180
(1782308588.313921) can1 60C#1B8C673A81A0E8
(1782308588.314131) can1 60C#3884A33A0220E8
(1782308588.314427) can1 60C#0494E57B0220E8
(1782308588.314636) can1 60C#2084633A0220E8
(1782308588.314924) can1 60C#179CE57B8220E8
(1782308588.315129) can1 60C#0084A33A0220E8
(1782308588.315425) can1 60C#529D6D7C0220AC
(1782308588.315614) can1 60D#1B6FCFA072800405
(1782308588.315898) can1 60D#387D0FA070801205
(1782308588.316181) can1 60D#047D0FA070800505
(1782308588.316423) can1 60D#207D0FA670801807
(1782308588.316801) can1 60D#177CEFA070800505
(1782308588.316986) can1 60D#007C4FA67080190B
(1782308588.317309) can1 60D#527D6FA070800505
(1782308588.386950) can1 60A#07FCF110
(1782308588.387122) can1 60B#1B4E83FF7EA00271
(1782308588.387466) can1 60B#384F04028020019A
(1782308588.387665) can1 60B#044F8BF980200181
(1782308588.387983) can1 60B#204FE4038020219A
(1782308588.388170) can1 60B#17502BF7801FA196
(1782308588.388472) can1 60B#0050E40180200183
(1782308588.388704) can1 60B#5250FBF480202180
(1782308588.388925) can1 60C#1B8C673A81A0E8
(1782308588.389176) can1 60C#3884A33A0220E8
(1782308588.389425) can1 60C#0494E56B0220E8
(1782308588.389779) can1 60C#2084633A0220E8
(1782308588.389961) can1 60C#1794E56B0220E8
(1782308588.390212) can1 60C#0084633A0220E8
(1782308588.390420) can1 60C#52A56D7C022088
(1782308588.390687) can1 60D#1B70AFA072800405
(1782308588.390958) can1 60D#387D0FA070801205
(1782308588.391272) can1 60D#047D2FA070800505
(1782308588.391548) can1 60D#207D0FA670801807
(1782308588.391798) can1 60D#177D0FA070800505
(1782308588.392000) can1 60D#007C8FA67080190B
(1782308588.392273) can1 60D#527D6FA070800505
(1782308588.456947) can1 60A#07FCF310
(1782308588.457172) can1 60B#1B4E83FF7EA00272
(1782308588.457430) can1 60B#384F040280200199
(1782308588.457666) can1 60B#044F8BF980200181
(1782308588.457898) can1 60B#204FE40280202199
(1782308588.458173) can1 60B#175033F6801FA197
(1782308588.458533) can1 60B#0050E40080200188
(1782308588.458720) can1 60B#5250FBF480202180
(1782308588.459029) can1 60C#1B8C673A81A0E8
(1782308588.459278) can1 60C#3884A33A0220E8
(1782308588.459445) can1 60C#0494E56A8220E8
(1782308588.459693) can1 60C#2084633A0220E8
(1782308588.459924) can1 60C#1794E56A8220E8
(1782308588.460201) can1 60C#0084633A0220E8
(1782308588.460447) can1 60C#52A56D7C022088
(1782308588.460692) can1 60D#1B71CFA072800405
(1782308588.460954) can1 60D#387D0FA070801205
(1782308588.461222) can1 60D#047D2FA070800505
(1782308588.461496) can1 60D#207CEFA670801807
(1782308588.461796) can1 60D#177D4FA070800505
(1782308588.462027) can1 60D#007C8FA67080190B
(1782308588.462270) can1 60D#527D6FA070800505
(1782308588.532029) can1 60A#07FCF510
(1782308588.532265) can1 60B#1B4E7BFF7EA00274
(1782308588.532539) can1 60B#384F040280200197
(1782308588.532801) can1 60B#044F8BF980200180
(1782308588.532997) can1 60B#204FE40280200199
(1782308588.533279) can1 60B#17503BF6801FC198
(1782308588.533528) can1 60B#0050E400801FE18D
(1782308588.533801) can1 60B#5250FBF480202181
(1782308588.534146) can1 60C#1B8C673A81A0E8
(1782308588.534354) can1 60C#3884A33A0220E8
(1782308588.534637) can1 60C#0494E55A8220E8
(1782308588.534830) can1 60C#2084633A0220E8
(1782308588.535167) can1 60C#1794E56A8220E8
(1782308588.535362) can1 60C#0084A33A0220E8
(1782308588.535604) can1 60C#52A56F7C022068
(1782308588.535945) can1 60D#1B72AFA072800405
(1782308588.536028) can1 60D#387D0FA070801105
(1782308588.536342) can1 60D#047D2FA070800505
(1782308588.536579) can1 60D#207CCFA17080170C
(1782308588.536900) can1 60D#177D2FA070800505
(1782308588.537027) can1 60D#007CAFA67080180B
(1782308588.537418) can1 60D#527D6FA070800505
(1782308588.607021) can1 60A#07FCF710
(1782308588.607229) can1 60B#1B4E7BFF7EA00275
(1782308588.607486) can1 60B#384F040280200196
(1782308588.607782) can1 60B#044F8BF980200181
(1782308588.608008) can1 60B#204FE40280200199
(1782308588.608230) can1 60B#17503BF6801FC19A
(1782308588.608480) can1 60B#0050E3FF801FE18E
(1782308588.608797) can1 60B#5250FBF480202181
(1782308588.608994) can1 60C#1B8C673A81A0E8
(1782308588.609249) can1 60C#3884A33A0220E8
(1782308588.609506) can1 60C#0494E55A8220E8
(1782308588.609793) can1 60C#2084633A0220E8
(1782308588.609995) can1 60C#1794E55A8220E8
(1782308588.610349) can1 60C#0084A33A0220E8
(1782308588.610515) can1 60C#52ADAF7C02204C
(1782308588.610793) can1 60D#1B738FA072800405
(1782308588.610993) can1 60D#387D0FA070801105
(1782308588.611269) can1 60D#047D0FA070800505
(1782308588.611548) can1 60D#207CCFA17080170C
(1782308588.611817) can1 60D#177CEFA070800505
(1782308588.612029) can1 60D#007CCFA67080180B
(1782308588.612445) can1 60D#527D6FA070800505
(1782308588.682029) can1 60A#06FCF910
(1782308588.682243) can1 60B#1B4E73FF7EA00275
(1782308588.682495) can1 60B#384F040280200194
(1782308588.682912) can1 60B#044F8BF980200181
(1782308588.683016) can1 60B#204FEC0280200197
(1782308588.683232) can1 60B#17503BF6801FE19B
(1782308588.683605) can1 60B#0050E3FE801FA18D
(1782308588.683837) can1 60C#1B8C673A81A0E8
(1782308588.684023) can1 60C#3884A33A0220E8
(1782308588.684267) can1 60C#0494E35A0220E8
(1782308588.684489) can1 60C#2084633A0220E8
(1782308588.684800) can1 60C#1794E55A8220E8
(1782308588.684958) can1 60C#0084633A0220E8
(1782308588.685244) can1 60D#1B72CFA072800405
(1782308588.685514) can1 60D#387D0FA070801105
(1782308588.685797) can1 60D#047D0FA070800505
(1782308588.686029) can1 60D#207CCFA17080170C
(1782308588.686300) can1 60D#177CCFA070800505
(1782308588.686648) can1 60D#007CCFA67080180B
(1782308588.737192) can1 201#4019000010F40000
(1782308588.737295) can1 700#041E0200
(1782308588.752029) can1 60A#06FCFB10
(1782308588.752259) can1 60B#1B4E73FF7EA00274
(1782308588.752555) can1 60B#384F040280200194
(1782308588.752897) can1 60B#044F83F980202181
(1782308588.753010) can1 60B#204FEC0280200196
(1782308588.753360) can1 60B#175043F6801FE19B
(1782308588.753560) can1 60B#0050E3FC801F818D
(1782308588.753898) can1 60C#1B8C673A81A0E8
(1782308588.754028) can1 60C#3884A33A0220E8
(1782308588.754386) can1 60C#0494A34A0220E8
(1782308588.754570) can1 60C#2084A33A0220E8
(1782308588.754801) can1 60C#1794E55A0220E8
(1782308588.755007) can1 60C#0084A33A0220E8
(1782308588.755396) can1 60D#1B728FA06E800405
(1782308588.755563) can1 60D#387D0FA070801105
(1782308588.755927) can1 60D#047D2FA070800505
(1782308588.756028) can1 60D#207CCFA17080170C
(1782308588.756440) can1 60D#177CAFA070800505
(1782308588.756623) can1 60D#007CAFA67080180B
(1782308588.827029) can1 60A#06FCFD10
(1782308588.827290) can1 60B#1B4E6BFF7E600272
(1782308588.827559) can1 60B#384F040280200193
(1782308588.827882) can1 60B#044F83F980200182
(1782308588.828028) can1 60B#204FEC0180200196
(1782308588.828318) can1 60B#175043F6801FE19B
(1782308588.828637) can1 60B#0050E3FC801F818F
(1782308588.828827) can1 60C#1B8C653A81A0E8
(1782308588.829027) can1 60C#3884A33A0220E8
(1782308588.829407) can1 60C#0494A34A0220E8
(1782308588.829598) can1 60C#2084633A0220E8
(1782308588.829803) can1 60C#1794E55A0220E8
(1782308588.830028) can1 60C#0084A33A0220E8
(1782308588.830328) can1 60D#1B6EEFA072800405
(1782308588.830594) can1 60D#387D0FA070801105
(1782308588.830850) can1 60D#047D2FA070800505
(1782308588.831118) can1 60D#207CCFA17080180C
(1782308588.831456) can1 60D#177CAFA070800505
(1782308588.831675) can1 60D#007CAFA67080180B
(1782308588.902021) can1 60A#06FCFF10
(1782308588.902372) can1 60B#1B4E6BFF7E60026F
(1782308588.902560) can1 60B#384F040280200190
(1782308588.902900) can1 60B#044F83F980200183
(1782308588.903029) can1 60B#204FE401801FE196
(1782308588.903432) can1 60B#175043F6801FE198
(1782308588.903623) can1 60B#0050E3FC801F8191
(1782308588.903913) can1 60C#1B8C633A81A0E8
(1782308588.904028) can1 60C#3884A33A0220E8
(1782308588.904426) can1 60C#048CA34A0220E8
(1782308588.904611) can1 60C#2084633A0220E8
(1782308588.904867) can1 60C#1794E54A0220E8
(1782308588.905028) can1 60C#0084A33A0220E8
(1782308588.905318) can1 60D#1B718FA072800405
(1782308588.905693) can1 60D#387CEFA070801105
(1782308588.905905) can1 60D#047D4FA070800505
(1782308588.906027) can1 60D#207CCFA17080180C
(1782308588.906420) can1 60D#177C8FA070800505
(1782308588.906777) can1 60D#007CAFA67080190B
(1782308588.977138) can1 60A#06FD0110
(1782308588.977318) can1 60B#1B4E63FF7E60026E
(1782308588.977663) can1 60B#384F04028020018F
(1782308588.977855) can1 60B#044F83F980200183
(1782308588.978152) can1 60B#204FEC01801FE195
(1782308588.978410) can1 60B#175043F6801FE196
(1782308588.978610) can1 60B#0050E3FC801F8190
(1782308588.978847) can1 60C#1B8C633A81A0C8
(1782308588.979029) can1 60C#3884A33A0220E8
(1782308588.979355) can1 60C#048CE54A0220CC
(1782308588.979600) can1 60C#2084633A0220E8
(1782308588.979849) can1 60C#178CE54A0220E8
(1782308588.980027) can1 60C#0084A33A0220E8
(1782308588.980379) can1 60D#1B71AFA072800405
(1782308588.980630) can1 60D#387CEFA070801105
(1782308588.980897) can1 60D#047D4FA070800505
(1782308588.981120) can1 60D#207CEFA17080170C
(1782308588.981421) can1 60D#177C6FA070800505
(1782308588.981671) can1 60D#007CCFA67080190B
(1782308589.047029) can1 60A#07FD0310
(1782308589.047405) can1 60B#1B4E5BFF7E20026B
(1782308589.047608) can1 60B#384F04028020018D
(1782308589.047918) can1 60B#044F83F980200182
(1782308589.048027) can1 60B#204FEC00801FE193
(1782308589.048479) can1 60B#175043F6801FC192
(1782308589.048671) can1 60B#0050E3FB801F8190
(1782308589.048972) can1 60B#0E50843480200188
(1782308589.049027) can1 60C#1B8C653B01A0C8
(1782308589.049484) can1 60C#3884A33A0220E8
(1782308589.049675) can1 60C#048CE54A0220E8
(1782308589.049970) can1 60C#2084633A0220E8
(1782308589.050119) can1 60C#178CE34A0220E8
(1782308589.050476) can1 60C#0084A33A0220E8
(1782308589.050665) can1 60C#0EA5278D822064
(1782308589.050980) can1 60D#1B720FA072800405
(1782308589.051121) can1 60D#387CEFA070801105
(1782308589.051461) can1 60D#047D6FA070800505
(1782308589.051692) can1 60D#207CEFA17080180C
(1782308589.052028) can1 60D#177C6FA070800505
(1782308589.052260) can1 60D#007CEFA67080190B
(1782308589.052481) can1 60D#0E7D0FA070800505
(1782308589.122173) can1 60A#07FD0510
(1782308589.122363) can1 60B#1B4E5BFF7E600267
(1782308589.122601) can1 60B#384F04028020018D
(1782308589.122848) can1 60B#044F83F980200182
(1782308589.123137) can1 60B#204FEC00801FE191
(1782308589.123517) can1 60B#175043F5801FC18F
(1782308589.123677) can1 60B#0050E3FB801FA191
(1782308589.124023) can1 60B#0E50843480200188
(1782308589.124130) can1 60C#1B8C653B81A0E8
(1782308589.124500) can1 60C#3884A33A0220E8
(1782308589.124685) can1 60C#048CE54A8220CC
(1782308589.124897) can1 60C#2084633A0220E8
(1782308589.125119) can1 60C#178CA34A0220E8
(1782308589.125492) can1 60C#0084A33A0220E8
(1782308589.125681) can1 60C#0EA52D8D82206C
(1782308589.125969) can1 60D#1B79AFA06E800405
(1782308589.126189) can1 60D#387D0FA070801105
(1782308589.126526) can1 60D#047D6FA070800505
(1782308589.126674) can1 60D#207CEFA17080170C
(1782308589.127029) can1 60D#177C6FA070800505
(1782308589.127272) can1 60D#007D0FA67080190B
(1782308589.127482) can1 60D#0E7D0FA070800505
(1782308589.197028) can1 60A#07FD0710
(1782308589.197471) can1 60B#1B4E53FF7EA00264
(1782308589.197664) can1 60B#384F04028020018B
(1782308589.197961) can1 60B#044F83F980200182
(1782308589.198156) can1 60B#204FEC00801FE18F
(1782308589.198546) can1 60B#175043F5801FC18B
(1782308589.198707) can1 60B#0050E3FB801FA18E
(1782308589.199029) can1 60B#0E507C34801FE182
(1782308589.199250) can1 60C#1B8C633B01A0E8
(1782308589.199484) can1 60C#3884A33A0220E8
(1782308589.199692) can1 60C#0494E54A8220CC
(1782308589.199948) can1 60C#2084633A0220E8
(1782308589.200204) can1 60C#178CA34A0220E8
(1782308589.200455) can1 60C#0084A33A0220E8
(1782308589.200756) can1 60C#0E9D2B7C822088
(1782308589.200955) can1 60D#1B7FAFA06E800405
(1782308589.201232) can1 60D#387D0FA070801105
(1782308589.201507) can1 60D#047D6FA070800505
(1782308589.201793) can1 60D#207D0FA17080170C
(1782308589.202026) can1 60D#177C6FA070800505
(1782308589.202271) can1 60D#007D0FA67080190B
(1782308589.202547) can1 60D#0E7D4FA070800505
(1782308589.272119) can1 60A#07FD0910
(1782308589.272469) can1 60B#1B4E53FF7E600262
(1782308589.272679) can1 60B#384F04028020018A
(1782308589.272962) can1 60B#044F83F980200182
(1782308589.273145) can1 60B#204FEC00801FE18C
(1782308589.273567) can1 60B#17504BF5801FC186
(1782308589.273731) can1 60B#0050E3FB801FA185
(1782308589.274028) can1 60B#0E507C34801FE182
(1782308589.274246) can1 60C#1B8C633B01A0E8
(1782308589.274540) can1 60C#3884A33A0220E8
(1782308589.274731) can1 60C#0494E74A8220AC
(1782308589.274952) can1 60C#2084A33A0220E8
(1782308589.275208) can1 60C#178CA34A0220E8
(1782308589.275439) can1 60C#0084A33A0220E8
(1782308589.275687) can1 60C#0EA52B7C82208C
(1782308589.275956) can1 60D#1B770FA06E800405
(1782308589.276258) can1 60D#387D0FA070801105
(1782308589.276559) can1 60D#047D6FA070800505
(1782308589.276801) can1 60D#207D0FA17080180C
(1782308589.276973) can1 60D#177C6FA070800505
(1782308589.277277) can1 60D#007D2FA67080180B
(1782308589.277553) can1 60D#0E7D4FA070800505
(1782308589.347153) can1 60A#07FD0B10
(1782308589.347525) can1 60B#1B4E4BFF7E600261
(1782308589.347707) can1 60B#384F040280200185
(1782308589.348009) can1 60B#044F83F8801FE180
(1782308589.348242) can1 60B#204FEC00801FE18A
(1782308589.348468) can1 60B#17504BF5801FC186
(1782308589.348794) can1 60B#0050E3FA801FA187
(1782308589.348991) can1 60B#0E507C34801FE182
(1782308589.349244) can1 60C#1B8C653B01A0E8
(1782308589.349498) can1 60C#3884A33A0220E8
(1782308589.349797) can1 60C#0494E54A0220E8
(1782308589.350027) can1 60C#2084633A0220E8
(1782308589.350250) can1 60C#178CE54A8220CC
(1782308589.350501) can1 60C#0084A53A0220E8
(1782308589.350793) can1 60C#0EA56D7C82208C
(1782308589.350972) can1 60D#1B76CFA06E800405
(1782308589.351377) can1 60D#387CEFA070801105
(1782308589.351538) can1 60D#047D6FA070800505
(1782308589.351794) can1 60D#207D0FA17080180C
(1782308589.352029) can1 60D#177C6FA070800505
(1782308589.352321) can1 60D#007D0FA67080180B
(1782308589.352598) can1 60D#0E7D4FA070800505
(1782308589.417266) can1 60A#08FD0D10
(1782308589.417460) can1 60B#1B4E4BFF7E60025F
(1782308589.417778) can1 60B#304E64007F60016C
(1782308589.417983) can1 60B#384F04028020217D
(1782308589.418256) can1 60B#044F83F8801FE17B
(1782308589.418505) can1 60B#204FE3FF801FC18B
(1782308589.418808) can1 60B#17504BF5801FC186
(1782308589.418993) can1 60B#0050E3FA801FA189
(1782308589.419305) can1 60B#0E507C34801FE182
(1782308589.419656) can1 60C#1B84633A81A0E8
(1782308589.419816) can1 60C#30A5278D822064
(1782308589.420118) can1 60C#3884A33A0220E8
(1782308589.420329) can1 60C#0494E54A8220C8
(1782308589.420609) can1 60C#2084A33A0220E8
(1782308589.420842) can1 60C#178CE54A8220CC
(1782308589.421028) can1 60C#0084A33A0220E8
(1782308589.421253) can1 60C#0EA56F7C82206C
(1782308589.421534) can1 60D#1B710FA06E800405
(1782308589.421796) can1 60D#307D0FA070800505
(1782308589.422028) can1 60D#387CCFA070801105
(1782308589.422342) can1 60D#047D4FA070800505
(1782308589.422693) can1 60D#207D0FA17080180C
(1782308589.422901) can1 60D#177C6FA070800505
(1782308589.423028) can1 60D#007D0FA67080180B
(1782308589.423492) can1 60D#0E7D4FA070800505
(1782308589.492273) can1 60A#08FD0F10
(1782308589.492530) can1 60B#1B4E43FF7E20025D
(1782308589.492903) can1 60B#304E54007FA02168
(1782308589.493006) can1 60B#384F040380202179
(1782308589.493342) can1 60B#044F83F7801FE177
(1782308589.493537) can1 60B#204FE3FF801FC18D
(1782308589.493828) can1 60B#17504BF4801FC186
(1782308589.494020) can1 60B#0050E3FA801FA18C
(1782308589.494405) can1 60B#0E507C34801FE182
(1782308589.494621) can1 60C#1B8C653A81A0E8
(1782308589.494812) can1 60C#30A4EB8D022068
(1782308589.495027) can1 60C#3884A33A0220E8
(1782308589.495299) can1 60C#0494E54A8220C8
(1782308589.495517) can1 60C#2084A33A0220E8
(1782308589.495796) can1 60C#178CE74A8220AC
(1782308589.496017) can1 60C#0084A33A0220E8
(1782308589.496277) can1 60C#0EA5AF7C82206C
(1782308589.496653) can1 60D#1B6FAFA06E800405
(1782308589.496851) can1 60D#309E8FA070800505
(1782308589.497027) can1 60D#387CCFA070801105
(1782308589.497447) can1 60D#047D2FA070800505
(1782308589.497620) can1 60D#207D0FA17080180C
(1782308589.497970) can1 60D#177C6FA070800505
(1782308589.498120) can1 60D#007D2FA67080180B
(1782308589.498507) can1 60D#0E7D4FA070800505
(1782308589.567266) can1 60A#09FD1110
(1782308589.567571) can1 60B#1B4E3BFF7E20025E
(1782308589.567879) can1 60B#304E4C007FA02167
(1782308589.568029) can1 60B#384F040380202177
(1782308589.568349) can1 60B#044F83F7801FE177
(1782308589.568556) can1 60B#204FE3FE801FA18D
(1782308589.568896) can1 60B#17504BF4801FC186
(1782308589.569027) can1 60B#0050E3F9801FA190
(1782308589.569429) can1 60B#0E507C34801FE182
(1782308589.569619) can1 60B#434FF3B780200196
(1782308589.569923) can1 60C#1B8C653A81A0E8
(1782308589.570027) can1 60C#309CEB7C822068
(1782308589.570424) can1 60C#3884A33A0220E8
(1782308589.570615) can1 60C#0494E74A8220CC
(1782308589.570880) can1 60C#2084A33A0220E8
(1782308589.571027) can1 60C#1794E74A8220AC
(1782308589.571420) can1 60C#0084A33A0220E8
(1782308589.571610) can1 60C#0EADB17C82204C
(1782308589.571882) can1 60C#43A5298D822064
(1782308589.572028) can1 60D#1B6E8FA06E800405
(1782308589.572444) can1 60D#309D4FA670801605
(1782308589.572652) can1 60D#387CEFA070801105
(1782308589.572957) can1 60D#047D2FA070800505
(1782308589.573027) can1 60D#207D2FA17080180C
(1782308589.573485) can1 60D#177C6FA070800505
(1782308589.573683) can1 60D#007D4FA67080180B
(1782308589.573975) can1 60D#0E7D4FA070800505
(1782308589.574245) can1 60D#437D0FA070800505
(1782308589.642271) can1 60A#0AFD1310
(1782308589.642558) can1 60B#1B4E33FF7DE0025E
(1782308589.642889) can1 60B#304E44007FE04168
(1782308589.643028) can1 60B#384F040380202173
(1782308589.643300) can1 60B#044F83F7801FE177
(1782308589.643576) can1 60B#204FE3FD801FA18D
(1782308589.643828) can1 60B#074F63D380200184
(1782308589.644027) can1 60B#17504BF4801FC186
(1782308589.644354) can1 60B#0050E3F9801FA193
(1782308589.644627) can1 60B#0E507C34801FE182
(1782308589.644876) can1 60B#434FF3B780200196
(1782308589.645026) can1 60C#1B8CA53A81A0CC
(1782308589.645452) can1 60C#3094EB7C022088
(1782308589.645603) can1 60C#3884A33A0220E8
(1782308589.645941) can1 60C#0494E74A8220CC
(1782308589.646027) can1 60C#2084A33A0220E8
(1782308589.646463) can1 60C#07A5278D822064
(1782308589.646620) can1 60C#1794E74A8220AC
(1782308589.646924) can1 60C#0084A33A0220E8
(1782308589.647028) can1 60C#0EADB17C82204C
(1782308589.647449) can1 60C#43A52D8D82206C
(1782308589.647634) can1 60D#1B6E8FA06E800405
(1782308589.647974) can1 60D#30948FA670801605
(1782308589.648027) can1 60D#387D2FA070801105
(1782308589.648500) can1 60D#047D2FA070800505
(1782308589.648662) can1 60D#207CEFA17080180C
(1782308589.649022) can1 60D#077D0FA070800505
(1782308589.649226) can1 60D#177C6FA070800505
(1782308589.649569) can1 60D#007D4FA67080180B
(1782308589.649885) can1 60D#0E7D4FA070800505
(1782308589.649989) can1 60D#437D0FA070800505
(1782308589.712317) can1 60A#0BFD1510
(1782308589.712582) can1 60B#1B4E33FF7DE0025E
(1782308589.712837) can1 60B#304E44017FE06168
(1782308589.713029) can1 60B#384F04038020216D
(1782308589.713433) can1 60B#044F83F7801FE177
(1782308589.713627) can1 60B#0E4F742480200177
(1782308589.713923) can1 60B#204FEBFC801F8189
(1782308589.714032) can1 60B#074F63D380200184
(1782308589.714398) can1 60B#17504BF4801FC186
(1782308589.714658) can1 60B#225034388020017D
(1782308589.714933) can1 60B#0050E3F9801FA18E
(1782308589.715128) can1 60B#434FF3B780200196
(1782308589.715499) can1 60C#1B8CA73A81A0CC
(1782308589.715644) can1 60C#3094A96B822088
(1782308589.715901) can1 60C#3884A33A0220E8
(1782308589.716118) can1 60C#0495274A8220CC
(1782308589.716471) can1 60C#0EA5278D822064
(1782308589.716644) can1 60C#2084A33A0220E8
(1782308589.716952) can1 60C#07A52D8D82206C
(1782308589.717028) can1 60C#1794E94A82208C
(1782308589.717484) can1 60C#22A5278D822064
(1782308589.717673) can1 60C#0084A33A0220E8
(1782308589.717908) can1 60C#43A56F8D82204C
(1782308589.718027) can1 60D#1B6E8FA06E800405
(1782308589.718487) can1 60D#30922FA670801605
(1782308589.718670) can1 60D#387D2FA070801105
(1782308589.719028) can1 60D#047D2FA070800505
(1782308589.719226) can1 60D#0E7D0FA070800505
(1782308589.719533) can1 60D#207D0FA17080170C
(1782308589.719737) can1 60D#077D0FA070800505
(1782308589.719997) can1 60D#177C6FA070800505
(1782308589.720247) can1 60D#227D0FA070800505
(1782308589.720494) can1 60D#007D4FA67080180B
(1782308589.720796) can1 60D#437D0FA070800505
(1782308589.737549) can1 201#4019000010F40000
(1782308589.737653) can1 700#041E0200
(1782308589.787359) can1 60A#0BFD1710
(1782308589.787593) can1 60B#1B4E2BFF7E200261
(1782308589.787885) can1 60B#304E3C027FE0A169
(1782308589.788028) can1 60B#384F040480202168
(1782308589.788353) can1 60B#044F83F7801FE177
(1782308589.788604) can1 60B#0E4F742480200177
(1782308589.788875) can1 60B#204FEBFC801F8185
(1782308589.789027) can1 60B#074F63D380200184
(1782308589.789503) can1 60B#17504BF4801FC186
(1782308589.789696) can1 60B#225034388020017D
(1782308589.789921) can1 60B#0050E3F9801FA183
(1782308589.790216) can1 60B#434FF3B780200196
(1782308589.790483) can1 60C#1B8CA73A81A0C8
(1782308589.790715) can1 60C#3094A96B8220A8
(1782308589.790930) can1 60C#3884A53A0220C8
(1782308589.791187) can1 60C#0495294A8220CC
(1782308589.791402) can1 60C#0EA52D8D82206C
(1782308589.791652) can1 60C#2084A33A0220E8
(1782308589.791924) can1 60C#07A56F8D82204C
(1782308589.792193) can1 60C#1795294A82208C
(1782308589.792424) can1 60C#22A52D8D82206C
(1782308589.792675) can1 60C#0084A33A0220E8
(1782308589.792895) can1 60C#43AD718D82204C
(1782308589.793172) can1 60D#1B7A4FA06E800405
(1782308589.793542) can1 60D#308F0FA670801605
(1782308589.793735) can1 60D#387D2FA070801105
(1782308589.794010) can1 60D#047D2FA070800505
(1782308589.794297) can1 60D#0E7D0FA070800505
(1782308589.794502) can1 60D#207D0FA17080160C
(1782308589.794826) can1 60D#077D0FA070800505
(1782308589.795028) can1 60D#177C6FA070800505
(1782308589.795368) can1 60D#227D0FA070800505
(1782308589.795578) can1 60D#007D0FA67080190B
(1782308589.795925) can1 60D#437D0FA070800505
(1782308589.862412) can1 60A#0BFD1910
(1782308589.862581) can1 60B#1B4E2BFF7EA00260
(1782308589.862847) can1 60B#304E3C038020C168
(1782308589.863028) can1 60B#384F040480202168
(1782308589.863470) can1 60B#044F83F7801FE16D
(1782308589.863660) can1 60B#0E4F742480200175
(1782308589.863984) can1 60B#204FEBFC801F8184
(1782308589.864173) can1 60B#074F63D380200184
(1782308589.864451) can1 60B#175043F3801FC186
(1782308589.864734) can1 60B#225034388020017D
(1782308589.864928) can1 60B#0050E3F9801FA183
(1782308589.865204) can1 60B#434FF3B780200196
(1782308589.865438) can1 60C#1B8CA73C01A0C8
(1782308589.865697) can1 60C#308CA75B0220A8
(1782308589.865898) can1 60C#3884A53A8220CC
(1782308589.866184) can1 60C#0495294A8220A8
(1782308589.866432) can1 60C#0EA56F8D822048
(1782308589.866687) can1 60C#2084A33A0220E8
(1782308589.867028) can1 60C#07AD718D82204C
(1782308589.867221) can1 60C#1795294A82206C
(1782308589.867451) can1 60C#22A56F8D82204C
(1782308589.867672) can1 60C#0084A33A0220E8
(1782308589.867921) can1 60C#43AD718D82202C
(1782308589.868197) can1 60D#1B808FA06E800405
(1782308589.868444) can1 60D#30908FA670801605
(1782308589.868817) can1 60D#387D2FA070801105
(1782308589.868982) can1 60D#047D0FA070800505
(1782308589.869313) can1 60D#0E7D2FA070800505
(1782308589.869556) can1 60D#207C6FA17080160C
(1782308589.869898) can1 60D#077D0FA070800505
(1782308589.870027) can1 60D#177C6FA070800505
(1782308589.870423) can1 60D#227D0FA070800505
(1782308589.870606) can1 60D#007D0FA67080190B
(1782308589.870898) can1 60D#437D0FA070800505
(1782308589.937453) can1 60A#0AFD1B10
(1782308589.937664) can1 60B#1B4E2BFF7EE00263
(1782308589.937921) can1 60B#304E44038020C167
(1782308589.938027) can1 60B#384F040480202168
(1782308589.938482) can1 60B#044F83F8801FE16B
(1782308589.938689) can1 60B#0E4F742480200175
(1782308589.939005) can1 60B#204FEBFB801F8186
(1782308589.939197) can1 60B#074F4BD3801FE184
(1782308589.939506) can1 60B#175043F3801FC186
(1782308589.939743) can1 60B#225034388020017D
(1782308589.939972) can1 60B#0050E3F8801FA188
(1782308589.940227) can1 60C#1B8CA73C01A0E8
(1782308589.940486) can1 60C#308CA75B0220C8
(1782308589.940818) can1 60C#388CA53A8220CC
(1782308589.940990) can1 60C#0495274A8220A8
(1782308589.941250) can1 60C#0EA5718D82204C
(1782308589.941507) can1 60C#2084A33A0220E8
(1782308589.941702) can1 60C#07A5717D022048
(1782308589.941960) can1 60C#179D294A82206C
(1782308589.942205) can1 60C#22AD718D82204C
(1782308589.942453) can1 60C#0084A33A0220E8
(1782308589.942804) can1 60D#1B972FA06E800405
(1782308589.942948) can1 60D#308E2FA670801605
(1782308589.943327) can1 60D#387D2FA070801105
(1782308589.943537) can1 60D#047D0FA070800505
(1782308589.943797) can1 60D#0E7D2FA070800505
(1782308589.944029) can1 60D#207BEFA17080160C
(1782308589.944293) can1 60D#077EAFA070800505
(1782308589.944569) can1 60D#177C6FA070800505
(1782308589.944821) can1 60D#227D0FA070800505
(1782308589.945028) can1 60D#007CEFA67080190B
(1782308590.012474) can1 60A#0AFD1D10
(1782308590.012677) can1 60B#1B4E23FF7F200263
(1782308590.012971) can1 60B#304E44048020C166
(1782308590.013187) can1 60B#384F040480202166
(1782308590.013422) can1 60B#044F83F88020016B
(1782308590.013668) can1 60B#0E4F742480200175
(1782308590.013950) can1 60B#204FEBFA801F8187
(1782308590.014236) can1 60B#074F4BD2801FE184
(1782308590.014509) can1 60B#175043F3801FC186
(1782308590.014872) can1 60B#225034388020017D
(1782308590.014977) can1 60B#0050E3F8801FA18C
(1782308590.015232) can1 60C#1B8CA93C01A0CC
(1782308590.015465) can1 60C#308CE75B0220A8
(1782308590.015853) can1 60C#388CA53A8220C8
(1782308590.015956) can1 60C#0495274A8220A8
(1782308590.016307) can1 60C#0EAD718D82202C
(1782308590.016504) can1 60C#2084A33A0220E8
(1782308590.016793) can1 60C#07AD717D02202C
(1782308590.016960) can1 60C#179D294A82204C
(1782308590.017198) can1 60C#22ADB18D82202C
(1782308590.017443) can1 60C#0084A33A0220E8
(1782308590.017793) can1 60D#1B972FA06E800405
(1782308590.017980) can1 60D#308D4FA670801605
(1782308590.018346) can1 60D#387D2FA070801105
(1782308590.018528) can1 60D#047CEFA070800505
(1782308590.018919) can1 60D#0E7D2FA070800505
(1782308590.019023) can1 60D#207BCFA17080160C
(1782308590.019402) can1 60D#077EAFA070800505
(1782308590.019596) can1 60D#177C6FA070800505
(1782308590.019953) can1 60D#227D0FA070800505
(1782308590.020027) can1 60D#007CEFA67080190B
(1782308590.082500) can1 60A#07FD1F10
(1782308590.082703) can1 60B#1B4E23FF7F600263
(1782308590.082990) can1 60B#304E44048060C165
(1782308590.083225) can1 60B#384F040480202162
(1782308590.083459) can1 60B#044F8BF98020016B
(1782308590.083808) can1 60B#204FEBFA801F818C
(1782308590.083999) can1 60B#175043F3801FC186
(1782308590.084274) can1 60B#0050E3F8801FA192
(1782308590.084500) can1 60C#1B8CA93C01A0CC
(1782308590.084796) can1 60C#308CE75A8220A8
(1782308590.084976) can1 60C#388CA53A8220C8
(1782308590.085223) can1 60C#0495274A8220A8
(1782308590.085474) can1 60C#2084A33A0220E8
(1782308590.085796) can1 60C#179D2B4A82204C
(1782308590.085978) can1 60C#0084A33A0220E8
(1782308590.086257) can1 60D#1B972FA06E800405
(1782308590.086513) can1 60D#308AEFA670801605
(1782308590.086795) can1 60D#387D2FA070801105
(1782308590.087029) can1 60D#047CCFA070800505
(1782308590.087323) can1 60D#207BCFA17080160C
(1782308590.087602) can1 60D#177C6FA070800505
(1782308590.087851) can1 60D#007D0FA67080190B
(1782308590.157524) can1 60A#07FD2110
(1782308590.157712) can1 60B#1B4E23FF7FA00264
(1782308590.157968) can1 60B#304E44048060A166
(1782308590.158212) can1 60B#384F040480202160
(1782308590.158471) can1 60B#044F8BF98020016B
(1782308590.158802) can1 60B#204FEBFA801FA190
(1782308590.159028) can1 60B#175043F3801FC186
(1782308590.159256) can1 60B#0050E3F8801FC198
(1782308590.159471) can1 60C#1B94AB3B81A0C8
(1782308590.159796) can1 60C#308CE75A8220A8
(1782308590.159987) can1 60C#388CA53A8220C8
(1782308590.160274) can1 60C#0494E73A8220A8
(1782308590.160498) can1 60C#2084A33A0220E8
(1782308590.160800) can1 60C#17A52B4B02202C
(1782308590.161010) can1 60C#0084A33A0220E8
(1782308590.161281) can1 60D#1B9D4FA06E800405
(1782308590.161611) can1 60D#30872FA670801605
(1782308590.161799) can1 60D#387BAFA070801105
(1782308590.162028) can1 60D#047CAFA070800505
(1782308590.162324) can1 60D#207BEFA17080160C
(1782308590.162580) can1 60D#177C6FA070800505
(1782308590.162947) can1 60D#007D0FA67080190B
(1782308590.232551) can1 60A#06FD2310
(1782308590.232737) can1 60B#1B4E23FF7FE00664
(1782308590.232971) can1 60B#304E4C058060A165
(1782308590.233301) can1 60B#384F04048020215E
(1782308590.233480) can1 60B#044F8BF98020016C
(1782308590.233800) can1 60B#204FEBFA801FA191
(1782308590.234022) can1 60B#0050E3F9801FC19A
(1782308590.234299) can1 60C#1B94EB3C01A0CC
(1782308590.234546) can1 60C#308CE74A8220A8
(1782308590.234906) can1 60C#388CA53A8220C8
(1782308590.235009) can1 60C#0494E73A8220A8
(1782308590.235303) can1 60C#2084A33A0220E8
(1782308590.235510) can1 60C#0084A33A0220E8
(1782308590.235800) can1 60D#1B9D4FA06E800505
(1782308590.235993) can1 60D#30856FA670801605
(1782308590.236277) can1 60D#387CAFA070801105
(1782308590.236549) can1 60D#047C8FA070800505
(1782308590.236821) can1 60D#207C2FA17080170C
(1782308590.237029) can1 60D#007D2FA67080190B
(1782308590.302573) can1 60A#06FD2510
(1782308590.302886) can1 60B#1B4E23FF80200662
(1782308590.302990) can1 60B#304E4C0580A0A165
(1782308590.303250) can1 60B#384F040480202161
(1782308590.303521) can1 60B#044F8BFA8020216C
(1782308590.303802) can1 60B#204FEBF9801F818F
(1782308590.304142) can1 60B#0050E3F8801FC19B
(1782308590.304307) can1 60C#1B9CEB3C01A0C8
(1782308590.304523) can1 60C#308CE54A8220A8
(1782308590.304818) can1 60C#388CE73A8220C8
(1782308590.304993) can1 60C#0494E73A8220A8
(1782308590.305274) can1 60C#2084A33A0220E8
(1782308590.305620) can1 60C#0084A33A0220E8
(1782308590.305798) can1 60D#1B9F0FA06E800505
(1782308590.306027) can1 60D#30890FA670801605
(1782308590.306361) can1 60D#387D6FA070801105
(1782308590.306577) can1 60D#047C8FA070800505
(1782308590.306843) can1 60D#207C8FA17080170C
(1782308590.307027) can1 60D#007D4FA67080190A
(1782308590.377607) can1 60A#06FD2710
(1782308590.377844) can1 60B#1B4E23FF80600661
(1782308590.378022) can1 60B#304E4C0580A0A165
(1782308590.378381) can1 60B#384F04048020215B
(1782308590.378574) can1 60B#044F8BFB8020216D
(1782308590.378801) can1 60B#204FEBF8801F618D
(1782308590.379148) can1 60B#0050E3F8801FC19B
(1782308590.379328) can1 60C#1B9CEB3C01A0C8
(1782308590.379583) can1 60C#308CE54A8220A8
(1782308590.379796) can1 60C#388CE73A8220A8
(1782308590.380028) can1 60C#0494E53A8220A8
(1782308590.380307) can1 60C#2084633A0220E8
(1782308590.380553) can1 60C#0084A33A0220E8
(1782308590.380820) can1 60D#1BA04FA06E800505
(1782308590.381028) can1 60D#308B2FA670801605
(1782308590.381451) can1 60D#387E2FA070801005
(1782308590.381648) can1 60D#047C4FA070800505
(1782308590.381946) can1 60D#207CEFA17080170C
(1782308590.382027) can1 60D#007D4FA67080190A
(1782308590.452629) can1 60A#06FD2910
(1782308590.452835) can1 60B#1B4E23FF80A00662
(1782308590.453029) can1 60B#304E540680A0A160
(1782308590.453397) can1 60B#384F0C048020215B
(1782308590.453562) can1 60B#044F8BFB8020216D
(1782308590.453826) can1 60B#204FEBF7801F618C
(1782308590.454027) can1 60B#0050E3F7801FC19A
(1782308590.454324) can1 60C#1B9CEB3B81A0C8
